Time[s], Channel 0, Channel 1
0.000000, 0, 0
0.407300, 0, 1
0.407302, 0, 0
0.407508, 0, 1
0.407510, 0, 0
0.407638, 0, 1
0.407640, 0, 0
0.407768, 0, 1
0.407770, 0, 0
0.407950, 0, 1
0.407952, 0, 0
0.408028, 0, 1
0.408030, 0, 0
0.408288, 0, 1
0.408290, 0, 0
0.408340, 0, 1
0.408342, 0, 0
0.408418, 0, 1
0.408420, 0, 0
0.408496, 0, 1
0.408498, 0, 0
0.408626, 0, 1
0.408628, 0, 0
0.408704, 0, 1
0.408706, 0, 0
0.408782, 0, 1
0.408784, 0, 0
0.408860, 0, 1
0.408862, 0, 0
0.408938, 0, 1
0.408940, 0, 0
0.409016, 0, 1
0.409018, 0, 0
0.409120, 0, 1
0.409122, 0, 0
0.409224, 0, 1
0.409226, 0, 0
0.409276, 0, 1
0.409278, 0, 0
0.409328, 0, 1
0.409330, 0, 0
0.409380, 0, 1
0.409382, 0, 0
0.409588, 0, 1
0.409590, 0, 0
2.423245, 0, 1
2.423248, 0, 0
2.423453, 0, 1
2.423455, 0, 0
2.423583, 0, 1
2.423585, 0, 0
2.423713, 0, 1
2.423716, 0, 0
2.423895, 0, 1
2.423897, 0, 0
2.423973, 0, 1
2.423975, 0, 0
2.424233, 0, 1
2.424235, 0, 0
2.424285, 0, 1
2.424287, 0, 0
2.424363, 0, 1
2.424366, 0, 0
2.424441, 0, 1
2.424443, 0, 0
2.424571, 0, 1
2.424574, 0, 0
2.424649, 0, 1
2.424651, 0, 0
2.424727, 0, 1
2.424729, 0, 0
2.424805, 0, 1
2.424807, 0, 0
2.424883, 0, 1
2.424885, 0, 0
2.424961, 0, 1
2.424963, 0, 0
2.425065, 0, 1
2.425067, 0, 0
2.425169, 0, 1
2.425171, 0, 0
2.425221, 0, 1
2.425223, 0, 0
2.425273, 0, 1
2.425275, 0, 0
2.425325, 0, 1
2.425327, 0, 0
2.425533, 0, 1
2.425535, 0, 0
4.439113, 0, 1
4.439115, 0, 0
4.439321, 0, 1
4.439323, 0, 0
4.439451, 0, 1
4.439453, 0, 0
4.439581, 0, 1
4.439583, 0, 0
4.439763, 0, 1
4.439765, 0, 0
4.439841, 0, 1
4.439843, 0, 0
4.440101, 0, 1
4.440103, 0, 0
4.440153, 0, 1
4.440155, 0, 0
4.440231, 0, 1
4.440233, 0, 0
4.440309, 0, 1
4.440311, 0, 0
4.440439, 0, 1
4.440441, 0, 0
4.440517, 0, 1
4.440519, 0, 0
4.440595, 0, 1
4.440597, 0, 0
4.440673, 0, 1
4.440675, 0, 0
4.440751, 0, 1
4.440753, 0, 0
4.440829, 0, 1
4.440831, 0, 0
4.440933, 0, 1
4.440935, 0, 0
4.441037, 0, 1
4.441039, 0, 0
4.441089, 0, 1
4.441091, 0, 0
4.441141, 0, 1
4.441143, 0, 0
4.441193, 0, 1
4.441195, 0, 0
4.441401, 0, 1
4.441403, 0, 0
6.456176, 0, 1
6.456178, 0, 0
6.456384, 0, 1
6.456386, 0, 0
6.456514, 0, 1
6.456516, 0, 0
6.456644, 0, 1
6.456646, 0, 0
6.456826, 0, 1
6.456828, 0, 0
6.456904, 0, 1
6.456906, 0, 0
6.457164, 0, 1
6.457166, 0, 0
6.457216, 0, 1
6.457218, 0, 0
6.457294, 0, 1
6.457296, 0, 0
6.457372, 0, 1
6.457374, 0, 0
6.457502, 0, 1
6.457504, 0, 0
6.457580, 0, 1
6.457582, 0, 0
6.457658, 0, 1
6.457660, 0, 0
6.457736, 0, 1
6.457738, 0, 0
6.457814, 0, 1
6.457816, 0, 0
6.457892, 0, 1
6.457894, 0, 0
6.457996, 0, 1
6.457998, 0, 0
6.458100, 0, 1
6.458102, 0, 0
6.458152, 0, 1
6.458154, 0, 0
6.458204, 0, 1
6.458206, 0, 0
6.458256, 0, 1
6.458258, 0, 0
6.458464, 0, 1
6.458466, 0, 0
6.801641, 0, 1
6.801642, 1, 1
6.802246, 0, 1
6.802247, 1, 1
6.802740, 0, 1
6.802741, 1, 1
6.803525, 0, 1
6.803528, 1, 1
6.803535, 0, 1
6.803543, 1, 1
6.803544, 0, 1
6.803546, 1, 1
6.803548, 0, 1
6.803625, 1, 1
7.806656, 0, 1
7.806682, 1, 1
7.806708, 0, 1
7.806890, 1, 1
7.806916, 0, 1
7.806995, 1, 1
7.807047, 0, 1
7.807151, 1, 1
7.807177, 0, 1
7.807203, 1, 1
7.807229, 0, 1
7.807333, 1, 1
7.807385, 0, 1
7.807411, 1, 1
7.807437, 0, 1
7.807672, 1, 1
7.807698, 0, 1
7.807932, 1, 1
7.807959, 0, 1
7.808193, 1, 1
7.808219, 0, 1
7.808454, 1, 1
7.808480, 0, 1
7.808714, 1, 1
7.808740, 0, 1
7.808975, 1, 1
7.809001, 0, 1
7.809235, 1, 1
7.809261, 0, 1
7.809496, 1, 1
7.809522, 0, 1
7.809756, 1, 1
7.809782, 0, 1
7.809808, 1, 1
7.809834, 0, 1
7.809861, 1, 1
7.809913, 0, 1
7.809939, 1, 1
7.809991, 0, 1
7.810017, 1, 1
7.817777, 1, 0
7.817803, 1, 1
7.817829, 1, 0
7.818011, 1, 1
7.818037, 1, 0
7.818115, 1, 1
7.818141, 1, 0
7.818271, 1, 1
7.818297, 1, 0
7.818323, 1, 1
7.818349, 1, 0
7.818453, 1, 1
7.818557, 1, 0
7.818791, 1, 1
7.818817, 1, 0
7.818843, 1, 1
7.818869, 1, 0
7.818895, 1, 1
7.818921, 1, 0
7.818973, 1, 1
7.868035, 1, 0
7.868061, 1, 1
7.868087, 1, 0
7.868269, 1, 1
7.868295, 1, 0
7.868399, 1, 1
7.868425, 1, 0
7.868529, 1, 1
7.868555, 1, 0
7.868711, 1, 1
7.868763, 1, 0
7.868789, 1, 1
7.868815, 1, 0
7.869049, 1, 1
7.869075, 1, 0
7.869101, 1, 1
7.869127, 1, 0
7.869179, 1, 1
7.869231, 1, 0
7.869257, 1, 1
7.869335, 1, 0
7.869387, 1, 1
7.869413, 1, 0
7.869465, 1, 1
7.869491, 1, 0
7.869543, 1, 1
7.869595, 1, 0
7.869621, 1, 1
7.869647, 1, 0
7.869699, 1, 1
7.869751, 1, 0
7.869777, 1, 1
7.869855, 1, 0
7.869881, 1, 1
7.869959, 1, 0
7.869985, 1, 1
7.870011, 1, 0
7.870037, 1, 1
7.870063, 1, 0
7.870089, 1, 1
7.870115, 1, 0
7.870141, 1, 1
7.870193, 1, 0
7.870349, 1, 1
7.884536, 0, 1
7.884562, 1, 1
7.884588, 0, 1
7.884771, 1, 1
7.884797, 0, 1
7.884875, 1, 1
7.884927, 0, 1
7.885031, 1, 1
7.885057, 0, 1
7.885083, 1, 1
7.885109, 0, 1
7.885214, 1, 1
7.885266, 0, 1
7.885292, 1, 1
7.885318, 0, 1
7.885552, 1, 1
7.885578, 0, 1
7.885604, 1, 1
7.885631, 0, 1
7.885657, 1, 1
7.885683, 0, 1
7.885735, 1, 1
7.885761, 0, 1
7.885813, 1, 1
7.885839, 0, 1
7.885891, 1, 1
7.885969, 0, 1
7.886073, 1, 1
7.886099, 0, 1
7.886152, 1, 1
7.886308, 0, 1
7.886334, 1, 1
7.886360, 0, 1
7.886386, 1, 1
7.886412, 0, 1
7.886438, 1, 1
7.886490, 0, 1
7.886542, 1, 1
7.886621, 0, 1
7.886699, 1, 1
7.886751, 0, 1
7.886777, 1, 1
7.886829, 0, 1
7.886855, 1, 1
7.886881, 0, 1
7.886907, 1, 1
7.886959, 0, 1
7.886985, 1, 1
7.887037, 0, 1
7.887090, 1, 1
7.887142, 0, 1
7.887168, 1, 1
7.887194, 0, 1
7.887298, 1, 1
7.887324, 0, 1
7.887350, 1, 1
7.887402, 0, 1
7.887480, 1, 1
7.887611, 0, 1
7.887637, 1, 1
7.887663, 0, 1
7.887689, 1, 1
7.887793, 0, 1
7.887897, 1, 1
7.918241, 1, 0
7.918267, 1, 1
7.918293, 1, 0
7.918475, 1, 1
7.918501, 1, 0
7.918579, 1, 1
7.918605, 1, 0
7.918735, 1, 1
7.918761, 1, 0
7.918787, 1, 1
7.918813, 1, 0
7.918917, 1, 1
7.919021, 1, 0
7.919255, 1, 1
7.919281, 1, 0
7.919307, 1, 1
7.919333, 1, 0
7.919359, 1, 1
7.919385, 1, 0
7.919437, 1, 1
7.968499, 1, 0
7.968525, 1, 1
7.968551, 1, 0
7.968733, 1, 1
7.968759, 1, 0
7.968863, 1, 1
7.968889, 1, 0
7.968993, 1, 1
7.969019, 1, 0
7.969071, 1, 1
7.969097, 1, 0
7.969175, 1, 1
7.969227, 1, 0
7.969253, 1, 1
7.969279, 1, 0
7.969513, 1, 1
7.969539, 1, 0
7.969565, 1, 1
7.969617, 1, 0
7.969643, 1, 1
7.969695, 1, 0
7.969721, 1, 1
7.969747, 1, 0
7.969773, 1, 1
7.969799, 1, 0
7.969877, 1, 1
7.969929, 1, 0
7.970033, 1, 1
7.970059, 1, 0
7.970111, 1, 1
7.970137, 1, 0
7.970215, 1, 1
7.970267, 1, 0
7.970293, 1, 1
7.970319, 1, 0
7.970371, 1, 1
7.970397, 1, 0
7.970423, 1, 1
7.970449, 1, 0
7.970553, 1, 1
7.970579, 1, 0
7.970605, 1, 1
7.970631, 1, 0
7.970657, 1, 1
7.970761, 1, 0
7.970813, 1, 1
7.985157, 0, 1
7.985183, 1, 1
7.985209, 0, 1
7.985392, 1, 1
7.985418, 0, 1
7.985444, 1, 1
7.985470, 0, 1
7.985496, 1, 1
7.985522, 0, 1
7.985652, 1, 1
7.985678, 0, 1
7.985808, 1, 1
7.985887, 0, 1
7.985913, 1, 1
7.985939, 0, 1
7.986173, 1, 1
7.986199, 0, 1
7.986225, 1, 1
7.986251, 0, 1
7.986434, 1, 1
7.986460, 0, 1
7.986512, 1, 1
7.986564, 0, 1
7.986590, 1, 1
7.986668, 0, 1
7.986694, 1, 1
8.018679, 1, 0
8.018705, 1, 1
8.018731, 1, 0
8.018913, 1, 1
8.018939, 1, 0
8.019017, 1, 1
8.019043, 1, 0
8.019173, 1, 1
8.019199, 1, 0
8.019329, 1, 1
8.019459, 1, 0
8.019693, 1, 1
8.019719, 1, 0
8.019797, 1, 1
8.019823, 1, 0
8.019849, 1, 1
8.068730, 1, 0
8.068756, 1, 1
8.068782, 1, 0
8.068964, 1, 1
8.068990, 1, 0
8.069042, 1, 1
8.069068, 1, 0
8.069094, 1, 1
8.069120, 1, 0
8.069224, 1, 1
8.069250, 1, 0
8.069406, 1, 1
8.069432, 1, 0
8.069484, 1, 1
8.069510, 1, 0
8.069744, 1, 1
8.069770, 1, 0
8.069822, 1, 1
8.069848, 1, 0
8.069900, 1, 1
8.069926, 1, 0
8.070004, 1, 1
8.070030, 1, 0
8.070134, 1, 1
8.070160, 1, 0
8.070212, 1, 1
8.070238, 1, 0
8.070264, 1, 1
8.070290, 1, 0
8.070316, 1, 1
8.070342, 1, 0
8.070524, 1, 1
8.070550, 1, 0
8.070576, 1, 1
8.070602, 1, 0
8.070680, 1, 1
8.070706, 1, 0
8.070758, 1, 1
8.070810, 1, 0
8.070836, 1, 1
8.070862, 1, 0
8.071044, 1, 1
8.071070, 1, 0
8.071304, 1, 1
8.071330, 1, 0
8.071356, 1, 1
8.071434, 1, 0
8.071460, 1, 1
8.071486, 1, 0
8.071564, 1, 1
12.894963, 0, 1
12.894989, 1, 1
12.895015, 0, 1
12.895197, 1, 1
12.895223, 0, 1
12.895249, 1, 1
12.895275, 0, 1
12.895302, 1, 1
12.895328, 0, 1
12.895458, 1, 1
12.895484, 0, 1
12.895510, 1, 1
12.895536, 0, 1
12.895640, 1, 1
12.895666, 0, 1
12.895718, 1, 1
12.895744, 0, 1
12.895979, 1, 1
12.896005, 0, 1
12.896031, 1, 1
12.896083, 0, 1
12.896161, 1, 1
12.896187, 0, 1
12.896239, 1, 1
12.896266, 0, 1
12.896292, 1, 1
12.896318, 0, 1
12.896370, 1, 1
12.896396, 0, 1
12.896448, 1, 1
12.896474, 0, 1
12.896500, 1, 1
12.907820, 1, 0
12.907846, 1, 1
12.907872, 1, 0
12.908054, 1, 1
12.908080, 1, 0
12.908158, 1, 1
12.908184, 1, 0
12.908314, 1, 1
12.908340, 1, 0
12.908366, 1, 1
12.908392, 1, 0
12.908496, 1, 1
12.908522, 1, 0
12.908548, 1, 1
12.908600, 1, 0
12.908834, 1, 1
12.908860, 1, 0
12.908886, 1, 1
12.908912, 1, 0
12.908938, 1, 1
12.908964, 1, 0
12.909016, 1, 1
12.909042, 1, 0
12.909068, 1, 1
12.958234, 1, 0
12.958260, 1, 1
12.958286, 1, 0
12.958468, 1, 1
12.958494, 1, 0
12.958546, 1, 1
12.958572, 1, 0
12.958598, 1, 1
12.958624, 1, 0
12.958728, 1, 1
12.958754, 1, 0
12.958910, 1, 1
12.958936, 1, 0
12.958988, 1, 1
12.959014, 1, 0
12.959248, 1, 1
12.959274, 1, 0
12.959326, 1, 1
12.959352, 1, 0
12.959404, 1, 1
12.959430, 1, 0
12.959508, 1, 1
12.959534, 1, 0
12.959638, 1, 1
12.959664, 1, 0
12.959716, 1, 1
12.959742, 1, 0
12.959768, 1, 1
12.959794, 1, 0
12.959820, 1, 1
12.959846, 1, 0
12.960028, 1, 1
12.960054, 1, 0
12.960080, 1, 1
12.960106, 1, 0
12.960184, 1, 1
12.960210, 1, 0
12.960262, 1, 1
12.960314, 1, 0
12.960340, 1, 1
12.960366, 1, 0
12.960548, 1, 1
12.960574, 1, 0
12.960808, 1, 1
12.960834, 1, 0
12.960860, 1, 1
12.960938, 1, 0
12.960964, 1, 1
12.960990, 1, 0
12.961068, 1, 1
13.008519, 1, 0
13.008545, 1, 1
13.008571, 1, 0
13.008753, 1, 1
13.008779, 1, 0
13.008909, 1, 1
13.008935, 1, 0
13.009013, 1, 1
13.009039, 1, 0
13.009065, 1, 1
13.009117, 1, 0
13.009195, 1, 1
13.009221, 1, 0
13.009273, 1, 1
13.009299, 1, 0
13.009533, 1, 1
13.009559, 1, 0
13.009793, 1, 1
13.009819, 1, 0
13.010053, 1, 1
13.010079, 1, 0
13.010313, 1, 1
13.010339, 1, 0
13.010573, 1, 1
13.010599, 1, 0
13.010833, 1, 1
13.010859, 1, 0
13.011093, 1, 1
13.011119, 1, 0
13.011145, 1, 1
13.011197, 1, 0
13.011353, 1, 1
13.011379, 1, 0
13.011509, 1, 1
13.011535, 1, 0
13.011613, 1, 1
13.011639, 1, 0
13.011691, 1, 1
13.011717, 1, 0
13.011795, 1, 1
13.011821, 1, 0
13.011873, 1, 1
13.011899, 1, 0
13.011925, 1, 1
13.011977, 1, 0
13.012133, 1, 1
13.012159, 1, 0
13.012211, 1, 1
13.012263, 1, 0
13.012393, 1, 1
13.012419, 1, 0
13.012471, 1, 1
13.012549, 1, 0
13.012653, 1, 1
13.012679, 1, 0
13.012705, 1, 1
13.012887, 1, 0
13.012913, 1, 1
17.901396, 0, 1
17.901422, 1, 1
17.901448, 0, 1
17.901631, 1, 1
17.901657, 0, 1
17.901683, 1, 1
17.901709, 0, 1
17.901735, 1, 1
17.901761, 0, 1
17.901891, 1, 1
17.901917, 0, 1
17.901943, 1, 1
17.901969, 0, 1
17.902074, 1, 1
17.902100, 0, 1
17.902152, 1, 1
17.902178, 0, 1
17.902412, 1, 1
17.902438, 0, 1
17.902490, 1, 1
17.902516, 0, 1
17.902595, 1, 1
17.902621, 0, 1
17.902673, 1, 1
17.902699, 0, 1
17.902803, 1, 1
17.902829, 0, 1
17.902881, 1, 1
17.902907, 0, 1
17.902933, 1, 1
17.948099, 1, 0
17.948125, 1, 1
17.948151, 1, 0
17.948333, 1, 1
17.948359, 1, 0
17.948437, 1, 1
17.948463, 1, 0
17.948593, 1, 1
17.948619, 1, 0
17.948645, 1, 1
17.948671, 1, 0
17.948775, 1, 1
17.948801, 1, 0
17.948827, 1, 1
17.948879, 1, 0
17.949113, 1, 1
17.949139, 1, 0
17.949165, 1, 1
17.949191, 1, 0
17.949217, 1, 1
17.949243, 1, 0
17.949295, 1, 1
17.949321, 1, 0
17.949347, 1, 1
17.998488, 1, 0
17.998514, 1, 1
17.998540, 1, 0
17.998722, 1, 1
17.998748, 1, 0
17.998800, 1, 1
17.998826, 1, 0
17.998852, 1, 1
17.998878, 1, 0
17.998982, 1, 1
17.999008, 1, 0
17.999164, 1, 1
17.999190, 1, 0
17.999242, 1, 1
17.999268, 1, 0
17.999502, 1, 1
17.999528, 1, 0
17.999580, 1, 1
17.999606, 1, 0
17.999658, 1, 1
17.999684, 1, 0
17.999762, 1, 1
17.999788, 1, 0
17.999892, 1, 1
17.999918, 1, 0
17.999970, 1, 1
17.999996, 1, 0
18.000022, 1, 1
18.000048, 1, 0
18.000074, 1, 1
18.000100, 1, 0
18.000282, 1, 1
18.000308, 1, 0
18.000334, 1, 1
18.000360, 1, 0
18.000438, 1, 1
18.000464, 1, 0
18.000516, 1, 1
18.000568, 1, 0
18.000594, 1, 1
18.000620, 1, 0
18.000802, 1, 1
18.000828, 1, 0
18.001062, 1, 1
18.001088, 1, 0
18.001114, 1, 1
18.001192, 1, 0
18.001218, 1, 1
18.001244, 1, 0
18.001322, 1, 1
18.049500, 1, 0
18.049526, 1, 1
18.049552, 1, 0
18.049734, 1, 1
18.049760, 1, 0
18.049838, 1, 1
18.049864, 1, 0
18.049890, 1, 1
18.049916, 1, 0
18.049994, 1, 1
18.050020, 1, 0
18.050072, 1, 1
18.050098, 1, 0
18.050176, 1, 1
18.050202, 1, 0
18.050254, 1, 1
18.050280, 1, 0
18.050514, 1, 1
18.051450, 1, 0
18.051476, 1, 1
18.051502, 1, 0
18.051528, 1, 1
18.051554, 1, 0
18.051632, 1, 1
18.051658, 1, 0
18.051684, 1, 1
18.051710, 1, 0
18.051762, 1, 1
18.051788, 1, 0
18.051840, 1, 1
18.051866, 1, 0
18.051944, 1, 1
18.051970, 1, 0
18.052048, 1, 1
18.052074, 1, 0
18.052152, 1, 1
18.052178, 1, 0
18.052204, 1, 1
18.052230, 1, 0
18.052256, 1, 1
18.052282, 1, 0
18.052334, 1, 1
18.052386, 1, 0
18.052464, 1, 1
18.052490, 1, 0
18.052724, 1, 1
18.052750, 1, 0
18.052776, 1, 1
18.052906, 1, 0
18.052932, 1, 1
18.053010, 1, 0
18.053244, 1, 1
18.053270, 1, 0
18.053504, 1, 1
18.053530, 1, 0
18.053764, 1, 1
18.053790, 1, 0
18.053816, 1, 1
18.053842, 1, 0
18.054024, 1, 1
18.054050, 1, 0
18.054102, 1, 1
18.054128, 1, 0
18.054154, 1, 1
18.054310, 1, 0
18.054336, 1, 1
18.054362, 1, 0
18.054440, 1, 1
18.054466, 1, 0
18.054518, 1, 1
18.054570, 1, 0
18.054596, 1, 1
18.054622, 1, 0
18.054804, 1, 1
18.054830, 1, 0
18.054960, 1, 1
18.054986, 1, 0
18.055038, 1, 1
18.055090, 1, 0
18.055116, 1, 1
18.055142, 1, 0
18.055324, 1, 1
18.055350, 1, 0
18.055584, 1, 1
18.055610, 1, 0
18.055636, 1, 1
18.055714, 1, 0
18.055766, 1, 1
22.908633, 0, 1
22.908659, 1, 1
22.908685, 0, 1
22.908867, 1, 1
22.908893, 0, 1
22.908919, 1, 1
22.908945, 0, 1
22.908971, 1, 1
22.908997, 0, 1
22.909128, 1, 1
22.909154, 0, 1
22.909180, 1, 1
22.909206, 0, 1
22.909310, 1, 1
22.909336, 0, 1
22.909388, 1, 1
22.909414, 0, 1
22.909649, 1, 1
22.909675, 0, 1
22.909727, 1, 1
22.909753, 0, 1
22.909831, 1, 1
22.909857, 0, 1
22.909909, 1, 1
22.909935, 0, 1
22.910040, 1, 1
22.910066, 0, 1
22.910118, 1, 1
22.910144, 0, 1
22.910170, 1, 1
23.108654, 0, 1
23.108888, 1, 1
23.108914, 0, 1
23.109149, 1, 1
23.109175, 0, 1
23.109409, 1, 1
23.109435, 0, 1
23.109670, 1, 1
23.109696, 0, 1
23.109931, 1, 1
23.109957, 0, 1
23.110191, 1, 1
23.110217, 0, 1
23.110452, 1, 1
23.110478, 0, 1
23.110712, 1, 1
23.110738, 0, 1
23.110973, 1, 1
23.110999, 0, 1
23.111233, 1, 1
23.111259, 0, 1
23.111494, 1, 1
23.111520, 0, 1
23.111754, 1, 1
23.111780, 0, 1
23.112015, 1, 1
23.112041, 0, 1
23.112275, 1, 1
23.112301, 0, 1
23.112536, 1, 1
23.112562, 0, 1
23.112797, 1, 1
23.129628, 0, 1
23.129862, 1, 1
23.129888, 0, 1
23.130123, 1, 1
23.130149, 0, 1
23.130383, 1, 1
23.130409, 0, 1
23.130644, 1, 1
23.130670, 0, 1
23.130904, 1, 1
23.130931, 0, 1
23.131165, 1, 1
23.131191, 0, 1
23.131426, 1, 1
23.131452, 0, 1
23.131686, 1, 1
23.131712, 0, 1
23.131947, 1, 1
23.131973, 0, 1
23.132207, 1, 1
23.132233, 0, 1
23.132468, 1, 1
23.132494, 0, 1
23.132728, 1, 1
23.132754, 0, 1
23.132989, 1, 1
23.133015, 0, 1
23.133249, 1, 1
23.133275, 0, 1
23.133510, 1, 1
23.133536, 0, 1
23.133770, 1, 1
23.150628, 0, 1
23.150862, 1, 1
23.150888, 0, 1
23.151123, 1, 1
23.151149, 0, 1
23.151383, 1, 1
23.151409, 0, 1
23.151644, 1, 1
23.151670, 0, 1
23.151904, 1, 1
23.151931, 0, 1
23.152165, 1, 1
23.152191, 0, 1
23.152426, 1, 1
23.152452, 0, 1
23.152686, 1, 1
23.152712, 0, 1
23.152947, 1, 1
23.152973, 0, 1
23.153207, 1, 1
23.153233, 0, 1
23.153468, 1, 1
23.153494, 0, 1
23.153728, 1, 1
23.153754, 0, 1
23.153989, 1, 1
23.154015, 0, 1
23.154249, 1, 1
23.154275, 0, 1
23.154510, 1, 1
23.154536, 0, 1
23.154770, 1, 1
23.171758, 0, 1
23.171993, 1, 1
23.172019, 0, 1
23.172253, 1, 1
23.172279, 0, 1
23.172514, 1, 1
23.172540, 0, 1
23.172774, 1, 1
23.172800, 0, 1
23.173035, 1, 1
23.173061, 0, 1
23.173295, 1, 1
23.173321, 0, 1
23.173556, 1, 1
23.173582, 0, 1
23.173816, 1, 1
23.173842, 0, 1
23.174077, 1, 1
23.174103, 0, 1
23.174338, 1, 1
23.174364, 0, 1
23.174598, 1, 1
23.174624, 0, 1
23.174859, 1, 1
23.174885, 0, 1
23.175119, 1, 1
23.175145, 0, 1
23.175380, 1, 1
23.175406, 0, 1
23.175640, 1, 1
23.175666, 0, 1
23.175901, 1, 1
23.192654, 0, 1
23.192888, 1, 1
23.192914, 0, 1
23.193149, 1, 1
23.193175, 0, 1
23.193409, 1, 1
23.193436, 0, 1
23.193670, 1, 1
23.193696, 0, 1
23.193931, 1, 1
23.193957, 0, 1
23.194191, 1, 1
23.194217, 0, 1
23.194452, 1, 1
23.194478, 0, 1
23.194712, 1, 1
23.194738, 0, 1
23.194973, 1, 1
23.194999, 0, 1
23.195233, 1, 1
23.195259, 0, 1
23.195494, 1, 1
23.195520, 0, 1
23.195754, 1, 1
23.195780, 0, 1
23.196015, 1, 1
23.196041, 0, 1
23.196275, 1, 1
23.196302, 0, 1
23.196536, 1, 1
23.196562, 0, 1
23.196797, 1, 1
23.213758, 0, 1
23.213993, 1, 1
23.214019, 0, 1
23.214253, 1, 1
23.214279, 0, 1
23.214514, 1, 1
23.214540, 0, 1
23.214774, 1, 1
23.214800, 0, 1
23.215035, 1, 1
23.215061, 0, 1
23.215295, 1, 1
23.215321, 0, 1
23.215556, 1, 1
23.215582, 0, 1
23.215816, 1, 1
23.215842, 0, 1
23.216077, 1, 1
23.216103, 0, 1
23.216338, 1, 1
23.216364, 0, 1
23.216598, 1, 1
23.216624, 0, 1
23.216859, 1, 1
23.216885, 0, 1
23.217119, 1, 1
23.217145, 0, 1
23.217380, 1, 1
23.217406, 0, 1
23.217640, 1, 1
23.217666, 0, 1
23.217901, 1, 1
23.234654, 0, 1
23.234888, 1, 1
23.234914, 0, 1
23.235149, 1, 1
23.235175, 0, 1
23.235410, 1, 1
23.235436, 0, 1
23.235670, 1, 1
23.235696, 0, 1
23.235931, 1, 1
23.235957, 0, 1
23.236191, 1, 1
23.236217, 0, 1
23.236452, 1, 1
23.236478, 0, 1
23.236712, 1, 1
23.236738, 0, 1
23.236973, 1, 1
23.236999, 0, 1
23.237233, 1, 1
23.237259, 0, 1
23.237494, 1, 1
23.237520, 0, 1
23.237754, 1, 1
23.237780, 0, 1
23.238015, 1, 1
23.238041, 0, 1
23.238276, 1, 1
23.238302, 0, 1
23.238536, 1, 1
23.238562, 0, 1
23.238797, 1, 1
23.255654, 0, 1
23.255888, 1, 1
23.255914, 0, 1
23.256149, 1, 1
23.256175, 0, 1
23.256410, 1, 1
23.256436, 0, 1
23.256670, 1, 1
23.256696, 0, 1
23.256931, 1, 1
23.256957, 0, 1
23.257191, 1, 1
23.257217, 0, 1
23.257452, 1, 1
23.257478, 0, 1
23.257712, 1, 1
23.257738, 0, 1
23.257973, 1, 1
23.257999, 0, 1
23.258233, 1, 1
23.258259, 0, 1
23.258494, 1, 1
23.258520, 0, 1
23.258754, 1, 1
23.258780, 0, 1
23.259015, 1, 1
23.259041, 0, 1
23.259276, 1, 1
23.259302, 0, 1
23.259536, 1, 1
23.259562, 0, 1
23.259797, 1, 1
23.276654, 0, 1
23.276888, 1, 1
23.276915, 0, 1
23.277149, 1, 1
23.277175, 0, 1
23.277410, 1, 1
23.277436, 0, 1
23.277670, 1, 1
23.277696, 0, 1
23.277931, 1, 1
23.277957, 0, 1
23.278191, 1, 1
23.278217, 0, 1
23.278452, 1, 1
23.278478, 0, 1
23.278712, 1, 1
23.278738, 0, 1
23.278973, 1, 1
23.278999, 0, 1
23.279233, 1, 1
23.279259, 0, 1
23.279494, 1, 1
23.279520, 0, 1
23.279754, 1, 1
23.279780, 0, 1
23.280015, 1, 1
23.280041, 0, 1
23.280276, 1, 1
23.280302, 0, 1
23.280536, 1, 1
23.280562, 0, 1
23.280797, 1, 1
23.297654, 0, 1
23.297888, 1, 1
23.297915, 0, 1
23.298149, 1, 1
23.298175, 0, 1
23.298410, 1, 1
23.298436, 0, 1
23.298670, 1, 1
23.298696, 0, 1
23.298931, 1, 1
23.298957, 0, 1
23.299191, 1, 1
23.299217, 0, 1
23.299452, 1, 1
23.299478, 0, 1
23.299712, 1, 1
23.299738, 0, 1
23.299973, 1, 1
23.299999, 0, 1
23.300233, 1, 1
23.300259, 0, 1
23.300494, 1, 1
23.300520, 0, 1
23.300754, 1, 1
23.300781, 0, 1
23.301015, 1, 1
23.301041, 0, 1
23.301276, 1, 1
23.301302, 0, 1
23.301536, 1, 1
23.301562, 0, 1
23.301797, 1, 1
23.318758, 0, 1
23.318993, 1, 1
23.319019, 0, 1
23.319253, 1, 1
23.319279, 0, 1
23.319514, 1, 1
23.319540, 0, 1
23.319774, 1, 1
23.319800, 0, 1
23.320035, 1, 1
23.320061, 0, 1
23.320295, 1, 1
23.320321, 0, 1
23.320556, 1, 1
23.320582, 0, 1
23.320817, 1, 1
23.320843, 0, 1
23.321077, 1, 1
23.321103, 0, 1
23.321338, 1, 1
23.321364, 0, 1
23.321598, 1, 1
23.321624, 0, 1
23.321859, 1, 1
23.321885, 0, 1
23.322119, 1, 1
23.322145, 0, 1
23.322380, 1, 1
23.322406, 0, 1
23.322640, 1, 1
23.322666, 0, 1
23.322901, 1, 1
23.339654, 0, 1
23.339888, 1, 1
23.339915, 0, 1
23.340149, 1, 1
23.340175, 0, 1
23.340410, 1, 1
23.340436, 0, 1
23.340670, 1, 1
23.340696, 0, 1
23.340931, 1, 1
23.340957, 0, 1
23.341191, 1, 1
23.341217, 0, 1
23.341452, 1, 1
23.341478, 0, 1
23.341712, 1, 1
23.341738, 0, 1
23.341973, 1, 1
23.341999, 0, 1
23.342233, 1, 1
23.342259, 0, 1
23.342494, 1, 1
23.342520, 0, 1
23.342754, 1, 1
23.342781, 0, 1
