Time[s], Channel 0, Channel 1, Channel 2
-5.1437107, 0, 0, 0
-0.1307455, 1, 0, 0
-0.1305907, 1, 0, 1
-0.1305906, 1, 0, 0
-0.1305904, 1, 0, 1
-0.1305893, 1, 0, 0
-0.1305892, 1, 0, 1
-0.1305889, 1, 0, 0
-0.1305888, 1, 0, 1
-0.1300006, 1, 0, 0
-0.1299577, 1, 0, 1
0.0000000, 0, 0, 1
0.0000885, 0, 1, 1
0.0001008, 0, 1, 0
0.0001188, 0, 1, 1
3.5013086, 0, 1, 0
3.7010596, 0, 1, 1
3.7010607, 0, 1, 0
3.7010608, 0, 1, 1
3.9009885, 0, 1, 0
4.1010561, 0, 1, 1
4.1010562, 0, 1, 0
4.1010566, 0, 1, 1
4.1010567, 0, 1, 0
4.1010568, 0, 1, 1
4.3009856, 0, 1, 0
4.5010531, 0, 1, 1
4.5010532, 0, 1, 0
4.5010544, 0, 1, 1
4.5010546, 0, 1, 0
4.5010547, 0, 1, 1
5.2012824, 1, 1, 1
5.4009777, 0, 1, 1
5.6009763, 1, 1, 1
5.8009749, 0, 1, 1
6.0009735, 1, 1, 1
6.2009720, 0, 1, 1
6.9012762, 0, 0, 1
7.1009656, 0, 1, 1
7.3009642, 0, 0, 1
7.5009627, 0, 1, 1
7.7009614, 0, 0, 1
7.9009599, 0, 1, 1
8.6013652, 0, 1, 0
8.6013672, 1, 1, 0
8.6013676, 1, 0, 0
8.8009537, 0, 0, 0
8.8009539, 0, 1, 0
8.8010208, 0, 1, 1
8.8010209, 0, 1, 0
8.8010231, 0, 1, 1
8.8010232, 0, 1, 0
8.8010235, 0, 1, 1
8.8010236, 0, 1, 0
8.8010238, 0, 1, 1
9.0009521, 0, 1, 0
9.0009523, 1, 1, 0
9.0009525, 1, 0, 0
9.2009508, 0, 0, 0
9.2009511, 0, 1, 0
9.2010206, 0, 1, 1
9.2010207, 0, 1, 0
9.2010208, 0, 1, 1
9.2010209, 0, 1, 0
9.2010210, 0, 1, 1
9.2010211, 0, 1, 0
9.2010212, 0, 1, 1
9.4009492, 0, 1, 0
9.4009494, 1, 1, 0
9.4009497, 1, 0, 0
9.6009479, 0, 0, 0
9.6009482, 0, 1, 0
9.6010178, 0, 1, 1
12.8028590, 0, 0, 1
12.8032317, 0, 0, 0
12.8129964, 0, 0, 1
12.8129965, 0, 0, 0
12.8129968, 0, 0, 1
12.8129970, 0, 0, 0
12.8129971, 0, 0, 1
14.8135383, 0, 1, 1
14.8136402, 0, 1, 0
14.8156515, 1, 1, 0
14.8156625, 0, 1, 0
14.8156732, 1, 1, 0
14.8156841, 0, 1, 0
14.8158541, 0, 1, 1
14.8158542, 0, 1, 0
14.8158544, 0, 1, 1
14.8158545, 0, 1, 0
14.8158546, 0, 1, 1
14.8158560, 0, 1, 0
14.8158561, 0, 1, 1
14.8263748, 0, 0, 1
14.8263859, 1, 0, 1
14.8263962, 0, 0, 1
14.8264069, 0, 1, 1
14.8264173, 1, 1, 1
14.8264276, 0, 1, 1
14.8264486, 1, 1, 1
14.8264590, 0, 1, 1
14.8264697, 0, 0, 1
14.8264800, 1, 0, 1
14.8264904, 0, 0, 1
14.8265011, 0, 1, 1
14.8265114, 1, 1, 1
14.8265217, 0, 1, 1
14.8265325, 0, 0, 1
14.8265428, 1, 0, 1
14.8265531, 0, 0, 1
14.8265742, 1, 0, 1
14.8265845, 0, 0, 1
14.8266056, 1, 0, 1
14.8266159, 0, 0, 1
14.8266389, 1, 0, 1
14.8266493, 0, 0, 1
14.8266598, 1, 0, 1
14.8266703, 0, 0, 1
14.8266807, 1, 0, 1
14.8266912, 0, 0, 1
14.8267017, 1, 0, 1
14.8267121, 0, 0, 1
14.8267226, 1, 0, 1
14.8267330, 0, 0, 1
14.8267435, 1, 0, 1
14.8267540, 0, 0, 1
14.8267644, 1, 0, 1
14.8267749, 0, 0, 1
14.8267853, 1, 0, 1
14.8267958, 0, 0, 1
14.8268101, 1, 0, 1
14.8268206, 0, 0, 1
14.8268310, 1, 0, 1
14.8268415, 0, 0, 1
14.8268519, 1, 0, 1
14.8268624, 0, 0, 1
14.8268729, 1, 0, 1
14.8268833, 0, 0, 1
14.8268938, 1, 0, 1
14.8269086, 0, 0, 1
14.8269191, 1, 0, 1
14.8269295, 0, 0, 1
14.8269400, 1, 0, 1
14.8269505, 0, 0, 1
14.8269609, 1, 0, 1
14.8269714, 0, 0, 1
14.8271414, 1, 0, 1
14.8271518, 0, 0, 1
14.8271728, 1, 0, 1
14.8271832, 0, 0, 1
14.8271939, 0, 1, 1
14.8272042, 1, 1, 1
14.8272145, 0, 1, 1
14.8272356, 1, 1, 1
14.8272459, 0, 1, 1
14.8272566, 0, 0, 1
14.8272670, 1, 0, 1
14.8272773, 0, 0, 1
14.8272880, 0, 1, 1
14.8272983, 1, 1, 1
14.8273087, 0, 1, 1
14.8273194, 0, 0, 1
14.8273297, 1, 0, 1
14.8273401, 0, 0, 1
14.8273611, 1, 0, 1
14.8273715, 0, 0, 1
14.8273857, 1, 0, 1
14.8273962, 0, 0, 1
14.8274066, 1, 0, 1
14.8274171, 0, 0, 1
14.8274275, 1, 0, 1
14.8274380, 0, 0, 1
14.8274485, 1, 0, 1
14.8274589, 0, 0, 1
14.8274694, 1, 0, 1
14.8274799, 0, 0, 1
14.8274903, 1, 0, 1
14.8275008, 0, 0, 1
14.8275112, 1, 0, 1
14.8275217, 0, 0, 1
14.8275322, 1, 0, 1
14.8275426, 0, 0, 1
14.8278202, 0, 1, 1
14.8278207, 0, 1, 0
14.8328325, 1, 1, 0
14.8328435, 0, 1, 0
14.8328538, 1, 1, 0
14.8328648, 0, 1, 0
14.8330353, 0, 1, 1
14.8330354, 0, 1, 0
14.8330355, 0, 1, 1
14.8429684, 0, 0, 1
14.8429787, 1, 0, 1
14.8429891, 0, 0, 1
14.8429998, 0, 1, 1
14.8430101, 1, 1, 1
14.8430204, 0, 1, 1
14.8430415, 1, 1, 1
14.8430518, 0, 1, 1
14.8430625, 0, 0, 1
14.8430729, 1, 0, 1
14.8430832, 0, 0, 1
14.8430939, 0, 1, 1
14.8431042, 1, 1, 1
14.8431146, 0, 1, 1
14.8431253, 0, 0, 1
14.8431356, 1, 0, 1
14.8431460, 0, 0, 1
14.8431670, 1, 0, 1
14.8431774, 0, 0, 1
14.8431984, 1, 0, 1
14.8432088, 0, 0, 1
14.8432230, 1, 0, 1
14.8432335, 0, 0, 1
14.8432439, 1, 0, 1
14.8432544, 0, 0, 1
14.8432648, 1, 0, 1
14.8432753, 0, 0, 1
14.8432858, 1, 0, 1
14.8432962, 0, 0, 1
14.8433067, 1, 0, 1
14.8433172, 0, 0, 1
14.8433276, 1, 0, 1
14.8433381, 0, 0, 1
14.8433485, 1, 0, 1
14.8433590, 0, 0, 1
14.8433695, 1, 0, 1
14.8433799, 0, 0, 1
14.8433942, 1, 0, 1
14.8434047, 0, 0, 1
14.8434151, 1, 0, 1
14.8434256, 0, 0, 1
14.8434361, 1, 0, 1
14.8434465, 0, 0, 1
14.8434570, 1, 0, 1
14.8434675, 0, 0, 1
14.8434779, 1, 0, 1
14.8434884, 0, 0, 1
14.8434988, 1, 0, 1
14.8435093, 0, 0, 1
14.8435198, 1, 0, 1
14.8435302, 0, 0, 1
14.8435407, 1, 0, 1
14.8435512, 0, 0, 1
14.8436971, 1, 0, 1
14.8437075, 0, 0, 1
14.8437285, 1, 0, 1
14.8437389, 0, 0, 1
14.8437496, 0, 1, 1
14.8437599, 1, 1, 1
14.8437702, 0, 1, 1
14.8437913, 1, 1, 1
14.8438016, 0, 1, 1
14.8438123, 0, 0, 1
14.8438227, 1, 0, 1
14.8438330, 0, 0, 1
14.8438437, 0, 1, 1
14.8438540, 1, 1, 1
14.8438644, 0, 1, 1
14.8438751, 0, 0, 1
14.8438854, 1, 0, 1
14.8438958, 0, 0, 1
14.8439191, 1, 0, 1
14.8439294, 0, 0, 1
14.8439436, 1, 0, 1
14.8439541, 0, 0, 1
14.8439646, 1, 0, 1
14.8439750, 0, 0, 1
14.8439855, 1, 0, 1
14.8439960, 0, 0, 1
14.8440064, 1, 0, 1
14.8440169, 0, 0, 1
14.8440273, 1, 0, 1
14.8440378, 0, 0, 1
14.8440483, 1, 0, 1
14.8440587, 0, 0, 1
14.8440692, 1, 0, 1
14.8440797, 0, 0, 1
14.8440901, 1, 0, 1
14.8441006, 0, 0, 1
14.8443696, 0, 1, 1
14.8443699, 0, 1, 0
14.8493805, 1, 1, 0
14.8493908, 0, 1, 0
14.8494012, 1, 1, 0
14.8494115, 0, 1, 0
14.8495812, 0, 1, 1
14.8495813, 0, 1, 0
14.8495817, 0, 1, 1
14.8495820, 0, 1, 0
14.8495821, 0, 1, 1
14.8495822, 0, 1, 0
14.8495823, 0, 1, 1
14.8495832, 0, 1, 0
14.8495833, 0, 1, 1
14.8595141, 0, 0, 1
14.8595244, 1, 0, 1
14.8595347, 0, 0, 1
14.8595454, 0, 1, 1
14.8595558, 1, 1, 1
14.8595661, 0, 1, 1
14.8595871, 1, 1, 1
14.8595975, 0, 1, 1
14.8596082, 0, 0, 1
14.8596185, 1, 0, 1
14.8596289, 0, 0, 1
14.8596396, 0, 1, 1
14.8596499, 1, 1, 1
14.8596602, 0, 1, 1
14.8596709, 0, 0, 1
14.8596813, 1, 0, 1
14.8596916, 0, 0, 1
14.8597127, 1, 0, 1
14.8597230, 0, 0, 1
14.8597441, 1, 0, 1
14.8597544, 0, 0, 1
14.8597686, 1, 0, 1
14.8597791, 0, 0, 1
14.8597896, 1, 0, 1
14.8598000, 0, 0, 1
14.8598105, 1, 0, 1
14.8598210, 0, 0, 1
14.8598314, 1, 0, 1
14.8598419, 0, 0, 1
14.8598523, 1, 0, 1
14.8598628, 0, 0, 1
14.8598733, 1, 0, 1
14.8598837, 0, 0, 1
14.8598942, 1, 0, 1
14.8599084, 0, 0, 1
14.8599188, 1, 0, 1
14.8599293, 0, 0, 1
14.8599435, 1, 0, 1
14.8599540, 0, 0, 1
14.8599645, 1, 0, 1
14.8599749, 0, 0, 1
14.8599854, 1, 0, 1
14.8599959, 0, 0, 1
14.8600063, 1, 0, 1
14.8600168, 0, 0, 1
14.8600272, 1, 0, 1
14.8600377, 0, 0, 1
14.8600482, 1, 0, 1
14.8600586, 0, 0, 1
14.8600691, 1, 0, 1
14.8600796, 0, 0, 1
14.8600900, 1, 0, 1
14.8601005, 0, 0, 1
14.8602393, 1, 0, 1
14.8602496, 0, 0, 1
14.8602707, 1, 0, 1
14.8602810, 0, 0, 1
14.8602917, 0, 1, 1
14.8603021, 1, 1, 1
14.8603124, 0, 1, 1
14.8603334, 1, 1, 1
14.8603438, 0, 1, 1
14.8603545, 0, 0, 1
14.8603648, 1, 0, 1
14.8603752, 0, 0, 1
14.8603859, 0, 1, 1
14.8603962, 1, 1, 1
14.8604065, 0, 1, 1
14.8604173, 0, 0, 1
14.8604276, 1, 0, 1
14.8604379, 0, 0, 1
14.8604590, 1, 0, 1
14.8604693, 0, 0, 1
14.8604836, 1, 0, 1
14.8604940, 0, 0, 1
14.8605045, 1, 0, 1
14.8605150, 0, 0, 1
14.8605254, 1, 0, 1
14.8605359, 0, 0, 1
14.8605463, 1, 0, 1
14.8605568, 0, 0, 1
14.8605673, 1, 0, 1
14.8605777, 0, 0, 1
14.8605882, 1, 0, 1
14.8605987, 0, 0, 1
14.8606091, 1, 0, 1
14.8606196, 0, 0, 1
14.8606300, 1, 0, 1
14.8606405, 0, 0, 1
