Time[s], Channel 0, Channel 1
0.000000, 1, 1
2.425986, 0, 1
2.426012, 1, 1
2.426038, 0, 1
2.426221, 1, 1
2.426247, 0, 1
2.426273, 1, 1
2.426299, 0, 1
2.426325, 1, 1
2.426351, 0, 1
2.426481, 1, 1
2.426507, 0, 1
2.426638, 1, 1
2.426690, 0, 1
2.426742, 1, 1
2.426768, 0, 1
2.427002, 1, 1
2.427029, 0, 1
2.427055, 1, 1
2.427107, 0, 1
2.427263, 1, 1
2.427289, 0, 1
2.427393, 1, 1
2.427471, 0, 1
2.427524, 1, 1
2.473130, 1, 0
2.473156, 1, 1
2.473182, 1, 0
2.473364, 1, 1
2.473390, 1, 0
2.473468, 1, 1
2.473494, 1, 0
2.473624, 1, 1
2.473650, 1, 0
2.473780, 1, 1
2.473832, 1, 0
2.473858, 1, 1
2.473910, 1, 0
2.474144, 1, 1
2.475054, 1, 0
2.475132, 1, 1
2.475158, 1, 0
2.475184, 1, 1
2.475236, 1, 0
2.475262, 1, 1
2.525157, 1, 0
2.525183, 1, 1
2.525209, 1, 0
2.525391, 1, 1
2.525417, 1, 0
2.525443, 1, 1
2.525469, 1, 0
2.525495, 1, 1
2.525521, 1, 0
2.525651, 1, 1
2.525677, 1, 0
2.525807, 1, 1
2.525885, 1, 0
2.525911, 1, 1
2.525937, 1, 0
2.526171, 1, 1
2.526197, 1, 0
2.526223, 1, 1
2.526249, 1, 0
2.526431, 1, 1
2.526457, 1, 0
2.526509, 1, 1
2.526561, 1, 0
2.526587, 1, 1
2.526665, 1, 0
2.526691, 1, 1
2.575883, 1, 0
2.575909, 1, 1
2.575935, 1, 0
2.576117, 1, 1
2.576143, 1, 0
2.576195, 1, 1
2.576221, 1, 0
2.576247, 1, 1
2.576273, 1, 0
2.576377, 1, 1
2.576403, 1, 0
2.576559, 1, 1
2.576585, 1, 0
2.576637, 1, 1
2.576663, 1, 0
2.576897, 1, 1
2.576923, 1, 0
2.576949, 1, 1
2.576975, 1, 0
2.577053, 1, 1
2.577079, 1, 0
2.577157, 1, 1
2.577183, 1, 0
2.577287, 1, 1
2.577313, 1, 0
2.577417, 1, 1
2.577443, 1, 0
2.577469, 1, 1
2.577521, 1, 0
2.577677, 1, 1
2.577703, 1, 0
2.577729, 1, 1
2.577963, 1, 0
2.577989, 1, 1
2.578223, 1, 0
2.578457, 1, 1
2.578483, 1, 0
2.578561, 1, 1
2.578587, 1, 0
2.578665, 1, 1
2.578691, 1, 0
2.578717, 1, 1
2.705017, 0, 1
2.705043, 1, 1
2.705069, 0, 1
2.705252, 1, 1
2.705278, 0, 1
2.705304, 1, 1
2.705330, 0, 1
2.705356, 1, 1
2.705382, 0, 1
2.705512, 1, 1
2.705538, 0, 1
2.705564, 1, 1
2.705590, 0, 1
2.705695, 1, 1
2.705721, 0, 1
2.705773, 1, 1
2.705799, 0, 1
2.706033, 1, 1
2.706059, 0, 1
2.706111, 1, 1
2.706137, 0, 1
2.706216, 1, 1
2.706242, 0, 1
2.706294, 1, 1
2.706320, 0, 1
2.706424, 1, 1
2.706450, 0, 1
2.706502, 1, 1
2.706528, 0, 1
2.706554, 1, 1
2.727827, 1, 0
2.727853, 1, 1
2.727879, 1, 0
2.728061, 1, 1
2.728087, 1, 0
2.728165, 1, 1
2.728191, 1, 0
2.728321, 1, 1
2.728347, 1, 0
2.728373, 1, 1
2.728399, 1, 0
2.728503, 1, 1
2.728529, 1, 0
2.728555, 1, 1
2.728607, 1, 0
2.728841, 1, 1
2.728867, 1, 0
2.728893, 1, 1
2.728919, 1, 0
2.728945, 1, 1
2.728971, 1, 0
2.729023, 1, 1
2.729049, 1, 0
2.729075, 1, 1
2.778605, 1, 0
2.778631, 1, 1
2.778657, 1, 0
2.778839, 1, 1
2.778865, 1, 0
2.778917, 1, 1
2.778943, 1, 0
2.778969, 1, 1
2.778995, 1, 0
2.779099, 1, 1
2.779125, 1, 0
2.779281, 1, 1
2.779307, 1, 0
2.779359, 1, 1
2.779385, 1, 0
2.779619, 1, 1
2.779645, 1, 0
2.779671, 1, 1
2.779697, 1, 0
2.779775, 1, 1
2.779801, 1, 0
2.779879, 1, 1
2.779905, 1, 0
2.780009, 1, 1
2.780035, 1, 0
2.780139, 1, 1
2.780165, 1, 0
2.780191, 1, 1
2.780243, 1, 0
2.780399, 1, 1
2.780425, 1, 0
2.780659, 1, 1
2.780685, 1, 0
2.780919, 1, 1
2.780945, 1, 0
2.781179, 1, 1
2.781205, 1, 0
2.781257, 1, 1
2.781309, 1, 0
2.781387, 1, 1
2.781413, 1, 0
2.781439, 1, 1
2.827642, 1, 0
2.827668, 1, 1
2.827694, 1, 0
2.827876, 1, 1
2.827902, 1, 0
2.827980, 1, 1
2.828006, 1, 0
2.828032, 1, 1
2.828058, 1, 0
2.828136, 1, 1
2.828162, 1, 0
2.828214, 1, 1
2.828240, 1, 0
2.828318, 1, 1
2.828344, 1, 0
2.828396, 1, 1
2.828422, 1, 0
2.828656, 1, 1
2.828682, 1, 0
2.828708, 1, 1
2.828734, 1, 0
2.828760, 1, 1
2.828786, 1, 0
2.828864, 1, 1
2.828890, 1, 0
2.828916, 1, 1
2.828942, 1, 0
2.828994, 1, 1
2.829020, 1, 0
2.829072, 1, 1
2.829098, 1, 0
2.829176, 1, 1
2.829202, 1, 0
2.829280, 1, 1
2.829306, 1, 0
2.829384, 1, 1
2.829410, 1, 0
2.829436, 1, 1
2.829462, 1, 0
2.829488, 1, 1
2.829514, 1, 0
2.829566, 1, 1
2.829618, 1, 0
2.829696, 1, 1
2.829722, 1, 0
2.829956, 1, 1
2.829982, 1, 0
2.830034, 1, 1
2.830060, 1, 0
2.830086, 1, 1
2.830112, 1, 0
2.830138, 1, 1
2.830242, 1, 0
2.830476, 1, 1
2.830502, 1, 0
2.830736, 1, 1
2.830762, 1, 0
2.830996, 1, 1
2.831022, 1, 0
2.831048, 1, 1
2.831100, 1, 0
2.831256, 1, 1
2.831282, 1, 0
2.831334, 1, 1
2.831360, 1, 0
2.831386, 1, 1
2.831542, 1, 0
2.831776, 1, 1
2.831802, 1, 0
2.832036, 1, 1
2.832062, 1, 0
2.832192, 1, 1
2.832218, 1, 0
2.832270, 1, 1
2.832322, 1, 0
2.832348, 1, 1
2.832374, 1, 0
2.832556, 1, 1
2.832582, 1, 0
2.832816, 1, 1
2.832842, 1, 0
2.832894, 1, 1
2.832920, 1, 0
2.832998, 1, 1
2.833050, 1, 0
2.833076, 1, 1
3.029974, 1, 0
3.030000, 1, 1
3.030026, 1, 0
3.030208, 1, 1
3.030234, 1, 0
3.030286, 1, 1
3.030312, 1, 0
3.030338, 1, 1
3.030364, 1, 0
3.030468, 1, 1
3.030494, 1, 0
3.030650, 1, 1
3.030676, 1, 0
3.030728, 1, 1
3.030754, 1, 0
3.030988, 1, 1
3.031014, 1, 0
3.031040, 1, 1
3.031066, 1, 0
3.031144, 1, 1
3.031170, 1, 0
3.031248, 1, 1
3.032132, 1, 0
3.032236, 1, 1
3.032262, 1, 0
3.032366, 1, 1
3.032392, 1, 0
3.032418, 1, 1
3.032470, 1, 0
3.032626, 1, 1
3.032652, 1, 0
3.032678, 1, 1
3.032730, 1, 0
3.032886, 1, 1
3.032912, 1, 0
3.033146, 1, 1
3.033172, 1, 0
3.033406, 1, 1
3.033432, 1, 0
3.033458, 1, 1
3.033484, 1, 0
3.033536, 1, 1
3.033562, 1, 0
3.033614, 1, 1
3.033640, 1, 0
3.033666, 1, 1
3.538146, 1, 0
3.538172, 1, 1
3.538198, 1, 0
3.538380, 1, 1
3.538406, 1, 0
3.538458, 1, 1
3.538484, 1, 0
3.538510, 1, 1
3.538536, 1, 0
3.538640, 1, 1
3.538666, 1, 0
3.538822, 1, 1
3.538848, 1, 0
3.538900, 1, 1
3.538926, 1, 0
3.539160, 1, 1
3.539992, 1, 0
3.540018, 1, 1
3.540044, 1, 0
3.540122, 1, 1
3.540148, 1, 0
3.540226, 1, 1
3.540252, 1, 0
3.540356, 1, 1
3.540382, 1, 0
3.540486, 1, 1
3.540512, 1, 0
3.540538, 1, 1
3.540590, 1, 0
3.540746, 1, 1
3.541500, 1, 0
3.541526, 1, 1
3.541552, 1, 0
3.541578, 1, 1
3.541630, 1, 0
3.541734, 1, 1
3.541760, 1, 0
3.541994, 1, 1
3.542020, 1, 0
3.542254, 1, 1
3.542280, 1, 0
3.542306, 1, 1
3.542358, 1, 0
3.542410, 1, 1
3.542436, 1, 0
3.542462, 1, 1
3.542488, 1, 0
3.542514, 1, 1
4.043926, 1, 0
4.043952, 1, 1
4.043978, 1, 0
4.044160, 1, 1
4.044186, 1, 0
4.044238, 1, 1
4.044264, 1, 0
4.044290, 1, 1
4.044316, 1, 0
4.044420, 1, 1
4.044446, 1, 0
4.044602, 1, 1
4.044628, 1, 0
4.044680, 1, 1
4.044706, 1, 0
4.044940, 1, 1
4.044966, 1, 0
4.044992, 1, 1
4.045018, 1, 0
4.045096, 1, 1
4.045122, 1, 0
4.045200, 1, 1
4.045226, 1, 0
4.045330, 1, 1
4.045356, 1, 0
4.045460, 1, 1
4.045486, 1, 0
4.045512, 1, 1
4.045564, 1, 0
4.045720, 1, 1
4.045746, 1, 0
4.045772, 1, 1
4.045824, 1, 0
4.045850, 1, 1
4.045902, 1, 0
4.045980, 1, 1
4.046006, 1, 0
4.046240, 1, 1
4.046266, 1, 0
4.046500, 1, 1
4.046526, 1, 0
4.046552, 1, 1
4.046578, 1, 0
4.046682, 1, 1
4.046734, 1, 0
4.046760, 1, 1
4.550304, 1, 0
4.550330, 1, 1
4.550356, 1, 0
4.550538, 1, 1
4.550564, 1, 0
4.550616, 1, 1
4.550642, 1, 0
4.550668, 1, 1
4.550694, 1, 0
4.550798, 1, 1
4.550824, 1, 0
4.550980, 1, 1
4.551006, 1, 0
4.551058, 1, 1
4.551084, 1, 0
4.551318, 1, 1
4.551344, 1, 0
4.551370, 1, 1
4.551396, 1, 0
4.551474, 1, 1
4.551500, 1, 0
4.551578, 1, 1
4.551604, 1, 0
4.551708, 1, 1
4.551734, 1, 0
4.551838, 1, 1
4.551864, 1, 0
4.551890, 1, 1
4.551942, 1, 0
4.552098, 1, 1
4.552124, 1, 0
4.552176, 1, 1
4.552202, 1, 0
4.552228, 1, 1
4.552254, 1, 0
4.552280, 1, 1
4.552306, 1, 0
4.552358, 1, 1
4.552384, 1, 0
4.552618, 1, 1
4.552644, 1, 0
4.552878, 1, 1
4.552904, 1, 0
4.553034, 1, 1
4.553112, 1, 0
4.553138, 1, 1
5.056552, 1, 0
5.056578, 1, 1
5.056604, 1, 0
5.056786, 1, 1
5.056812, 1, 0
5.056864, 1, 1
5.056890, 1, 0
5.056916, 1, 1
5.056942, 1, 0
5.057046, 1, 1
5.057072, 1, 0
5.057228, 1, 1
5.057254, 1, 0
5.057306, 1, 1
5.057332, 1, 0
5.057566, 1, 1
5.057592, 1, 0
5.057618, 1, 1
5.057644, 1, 0
5.057722, 1, 1
5.057748, 1, 0
5.057826, 1, 1
5.057852, 1, 0
5.057956, 1, 1
5.057982, 1, 0
5.058086, 1, 1
5.058112, 1, 0
5.058138, 1, 1
5.058190, 1, 0
5.058346, 1, 1
5.058372, 1, 0
5.058398, 1, 1
5.058424, 1, 0
5.058476, 1, 1
5.058554, 1, 0
5.058606, 1, 1
5.058632, 1, 0
5.058866, 1, 1
5.058892, 1, 0
5.059126, 1, 1
5.059152, 1, 0
5.059178, 1, 1
5.059360, 1, 0
5.059386, 1, 1
5.563086, 1, 0
5.563112, 1, 1
5.563138, 1, 0
5.563320, 1, 1
5.563346, 1, 0
5.563398, 1, 1
5.563424, 1, 0
5.563450, 1, 1
5.563476, 1, 0
5.563580, 1, 1
5.563606, 1, 0
5.563762, 1, 1
5.563788, 1, 0
5.563840, 1, 1
5.563866, 1, 0
5.564100, 1, 1
5.564126, 1, 0
5.564152, 1, 1
5.564178, 1, 0
5.564256, 1, 1
5.564282, 1, 0
5.564360, 1, 1
5.564386, 1, 0
5.564490, 1, 1
5.564516, 1, 0
5.564620, 1, 1
5.564646, 1, 0
5.564672, 1, 1
5.564724, 1, 0
5.564880, 1, 1
5.564906, 1, 0
5.565010, 1, 1
5.565036, 1, 0
5.565088, 1, 1
5.565114, 1, 0
5.565140, 1, 1
5.565166, 1, 0
5.565400, 1, 1
5.565426, 1, 0
5.565660, 1, 1
5.565686, 1, 0
5.565738, 1, 1
5.565816, 1, 0
5.565894, 1, 1
6.068450, 1, 0
6.068476, 1, 1
6.068502, 1, 0
6.068684, 1, 1
6.068710, 1, 0
6.068762, 1, 1
6.068788, 1, 0
6.068814, 1, 1
6.068840, 1, 0
6.068944, 1, 1
6.068970, 1, 0
6.069126, 1, 1
6.069152, 1, 0
6.069204, 1, 1
6.069230, 1, 0
6.069464, 1, 1
6.069490, 1, 0
6.069516, 1, 1
6.069542, 1, 0
6.069620, 1, 1
6.069646, 1, 0
6.069724, 1, 1
6.069750, 1, 0
6.069854, 1, 1
6.069880, 1, 0
6.069984, 1, 1
6.070010, 1, 0
6.070036, 1, 1
6.070088, 1, 0
6.070244, 1, 1
6.070270, 1, 0
6.070296, 1, 1
6.070374, 1, 0
6.070400, 1, 1
6.070426, 1, 0
6.070452, 1, 1
6.070478, 1, 0
6.070504, 1, 1
6.070530, 1, 0
6.070764, 1, 1
6.070790, 1, 0
6.071024, 1, 1
6.071050, 1, 0
6.071076, 1, 1
6.071102, 1, 0
6.071128, 1, 1
6.071206, 1, 0
6.071258, 1, 1
6.576128, 1, 0
6.576154, 1, 1
6.576180, 1, 0
6.576362, 1, 1
6.576388, 1, 0
6.576440, 1, 1
6.576466, 1, 0
6.576492, 1, 1
6.576518, 1, 0
6.576622, 1, 1
6.576648, 1, 0
6.576804, 1, 1
6.576830, 1, 0
6.576882, 1, 1
6.576908, 1, 0
6.577142, 1, 1
6.577168, 1, 0
6.577194, 1, 1
6.577220, 1, 0
6.577298, 1, 1
6.577324, 1, 0
6.577402, 1, 1
6.577428, 1, 0
6.577532, 1, 1
6.577558, 1, 0
6.577662, 1, 1
6.577688, 1, 0
6.577714, 1, 1
6.577766, 1, 0
6.577922, 1, 1
6.577948, 1, 0
6.578000, 1, 1
6.578052, 1, 0
6.578104, 1, 1
6.578156, 1, 0
6.578182, 1, 1
6.578208, 1, 0
6.578442, 1, 1
6.578468, 1, 0
6.578702, 1, 1
6.578728, 1, 0
6.578806, 1, 1
6.578858, 1, 0
6.578884, 1, 1
6.578910, 1, 0
6.578936, 1, 1
7.082037, 1, 0
7.082063, 1, 1
7.082089, 1, 0
7.082271, 1, 1
7.082297, 1, 0
7.082349, 1, 1
7.082375, 1, 0
7.082401, 1, 1
7.082427, 1, 0
7.082531, 1, 1
7.082557, 1, 0
7.082713, 1, 1
7.082739, 1, 0
7.082791, 1, 1
7.082817, 1, 0
7.083051, 1, 1
7.083077, 1, 0
7.083103, 1, 1
7.083129, 1, 0
7.083207, 1, 1
7.083233, 1, 0
7.083311, 1, 1
7.083337, 1, 0
7.083441, 1, 1
7.083467, 1, 0
7.083571, 1, 1
7.083597, 1, 0
7.083623, 1, 1
7.083675, 1, 0
7.083831, 1, 1
7.083857, 1, 0
7.083883, 1, 1
7.083909, 1, 0
7.083935, 1, 1
7.083961, 1, 0
7.083987, 1, 1
7.084065, 1, 0
7.084091, 1, 1
7.084117, 1, 0
7.084351, 1, 1
7.084377, 1, 0
7.084611, 1, 1
7.084637, 1, 0
7.084663, 1, 1
7.084715, 1, 0
7.084741, 1, 1
7.084819, 1, 0
7.084845, 1, 1
7.590677, 1, 0
7.590703, 1, 1
7.590729, 1, 0
7.590911, 1, 1
7.590937, 1, 0
7.590989, 1, 1
7.591015, 1, 0
7.591041, 1, 1
7.591067, 1, 0
7.591171, 1, 1
7.591197, 1, 0
7.591353, 1, 1
7.591379, 1, 0
7.591431, 1, 1
7.591457, 1, 0
7.591691, 1, 1
7.591717, 1, 0
7.591743, 1, 1
7.591769, 1, 0
7.591847, 1, 1
7.591873, 1, 0
7.591951, 1, 1
7.591977, 1, 0
7.592081, 1, 1
7.592107, 1, 0
7.592211, 1, 1
7.592237, 1, 0
7.592263, 1, 1
7.592315, 1, 0
7.592471, 1, 1
7.592497, 1, 0
7.592575, 1, 1
7.592601, 1, 0
7.592705, 1, 1
7.592757, 1, 0
7.592991, 1, 1
7.593017, 1, 0
7.593251, 1, 1
7.593277, 1, 0
7.593329, 1, 1
7.593355, 1, 0
7.593381, 1, 1
7.593407, 1, 0
7.593459, 1, 1
7.732500, 0, 1
7.732526, 1, 1
7.732552, 0, 1
7.732735, 1, 1
7.732761, 0, 1
7.732787, 1, 1
7.732813, 0, 1
7.732839, 1, 1
7.732865, 0, 1
7.732995, 1, 1
7.733021, 0, 1
7.733047, 1, 1
7.733073, 0, 1
7.733178, 1, 1
7.733204, 0, 1
7.733256, 1, 1
7.733282, 0, 1
7.733516, 1, 1
7.733542, 0, 1
7.733595, 1, 1
7.733621, 0, 1
7.733699, 1, 1
7.733725, 0, 1
7.733777, 1, 1
7.733803, 0, 1
7.733907, 1, 1
7.733933, 0, 1
7.733985, 1, 1
7.734011, 0, 1
7.734037, 1, 1
7.742752, 1, 0
7.742778, 1, 1
7.742804, 1, 0
7.742986, 1, 1
7.743012, 1, 0
7.743090, 1, 1
7.743116, 1, 0
7.743246, 1, 1
7.743272, 1, 0
7.743298, 1, 1
7.743324, 1, 0
7.743428, 1, 1
7.743454, 1, 0
7.743480, 1, 1
7.743532, 1, 0
7.743766, 1, 1
7.743792, 1, 0
7.743818, 1, 1
7.743844, 1, 0
7.743870, 1, 1
7.743896, 1, 0
7.743948, 1, 1
7.743974, 1, 0
7.744000, 1, 1
7.793582, 1, 0
7.793608, 1, 1
7.793634, 1, 0
7.793816, 1, 1
7.793842, 1, 0
7.793894, 1, 1
7.793920, 1, 0
7.793946, 1, 1
7.793972, 1, 0
7.794076, 1, 1
7.794102, 1, 0
7.794258, 1, 1
7.794284, 1, 0
7.794336, 1, 1
7.794362, 1, 0
7.794596, 1, 1
7.794622, 1, 0
7.794648, 1, 1
7.794674, 1, 0
7.794752, 1, 1
7.794778, 1, 0
7.794856, 1, 1
7.794882, 1, 0
7.794986, 1, 1
7.795012, 1, 0
7.795116, 1, 1
7.795142, 1, 0
7.795168, 1, 1
7.795220, 1, 0
7.795376, 1, 1
7.795402, 1, 0
7.795428, 1, 1
7.795454, 1, 0
7.795506, 1, 1
7.795532, 1, 0
7.795610, 1, 1
7.796312, 1, 0
7.796546, 1, 1
7.796572, 1, 0
7.796806, 1, 1
7.796832, 1, 0
7.796858, 1, 1
7.796962, 1, 0
7.797014, 1, 1
7.843996, 1, 0
7.844022, 1, 1
7.844048, 1, 0
7.844230, 1, 1
7.844256, 1, 0
7.844334, 1, 1
7.844360, 1, 0
7.844386, 1, 1
7.844412, 1, 0
7.844490, 1, 1
7.844516, 1, 0
7.844568, 1, 1
7.844594, 1, 0
7.844672, 1, 1
7.844698, 1, 0
7.844750, 1, 1
7.844776, 1, 0
7.845010, 1, 1
7.845036, 1, 0
7.845062, 1, 1
7.845088, 1, 0
7.845114, 1, 1
7.845140, 1, 0
7.845218, 1, 1
7.845244, 1, 0
7.845270, 1, 1
7.845296, 1, 0
7.845348, 1, 1
7.845374, 1, 0
7.845426, 1, 1
7.845452, 1, 0
7.845530, 1, 1
7.845556, 1, 0
7.845634, 1, 1
7.845660, 1, 0
7.845738, 1, 1
7.845764, 1, 0
7.845790, 1, 1
7.845816, 1, 0
7.845842, 1, 1
7.845868, 1, 0
7.845920, 1, 1
7.845972, 1, 0
7.846050, 1, 1
7.846076, 1, 0
7.846310, 1, 1
7.846336, 1, 0
7.846388, 1, 1
7.846414, 1, 0
7.846440, 1, 1
7.846466, 1, 0
7.846492, 1, 1
7.846596, 1, 0
7.846830, 1, 1
7.846856, 1, 0
7.847090, 1, 1
7.847116, 1, 0
7.847350, 1, 1
7.847376, 1, 0
7.847402, 1, 1
7.847454, 1, 0
7.847610, 1, 1
7.847636, 1, 0
7.847688, 1, 1
7.847714, 1, 0
7.847740, 1, 1
7.847896, 1, 0
7.847922, 1, 1
7.847948, 1, 0
7.848000, 1, 1
7.848026, 1, 0
7.848104, 1, 1
7.848988, 1, 0
7.849222, 1, 1
7.849248, 1, 0
7.849378, 1, 1
7.849404, 1, 0
7.849456, 1, 1
7.849508, 1, 0
7.849534, 1, 1
7.849560, 1, 0
7.849742, 1, 1
7.849768, 1, 0
7.850002, 1, 1
7.850028, 1, 0
7.850054, 1, 1
7.850106, 1, 0
7.850132, 1, 1
7.850158, 1, 0
7.850184, 1, 1
8.099863, 1, 0
8.099889, 1, 1
8.099915, 1, 0
8.100097, 1, 1
8.100123, 1, 0
8.100175, 1, 1
8.100201, 1, 0
8.100227, 1, 1
8.100253, 1, 0
8.100357, 1, 1
8.100383, 1, 0
8.100539, 1, 1
8.100565, 1, 0
8.100617, 1, 1
8.100643, 1, 0
8.100877, 1, 1
8.100903, 1, 0
8.100929, 1, 1
8.100955, 1, 0
8.101033, 1, 1
8.101059, 1, 0
8.101137, 1, 1
8.101163, 1, 0
8.101267, 1, 1
8.101293, 1, 0
8.101397, 1, 1
8.101423, 1, 0
8.101449, 1, 1
8.101501, 1, 0
8.101657, 1, 1
8.101683, 1, 0
8.101761, 1, 1
8.101787, 1, 0
8.101813, 1, 1
8.101839, 1, 0
8.101891, 1, 1
8.101943, 1, 0
8.102177, 1, 1
8.102203, 1, 0
8.102437, 1, 1
8.102463, 1, 0
8.102515, 1, 1
8.102541, 1, 0
8.102567, 1, 1
8.102619, 1, 0
8.102645, 1, 1
8.606891, 1, 0
8.606917, 1, 1
8.606943, 1, 0
8.607125, 1, 1
8.607151, 1, 0
8.607203, 1, 1
8.607229, 1, 0
8.607255, 1, 1
8.607281, 1, 0
8.607385, 1, 1
8.607411, 1, 0
8.607567, 1, 1
8.607593, 1, 0
8.607645, 1, 1
8.607671, 1, 0
8.607905, 1, 1
8.607931, 1, 0
8.607957, 1, 1
8.607983, 1, 0
8.608009, 1, 1
8.608035, 1, 0
8.608061, 1, 1
8.608087, 1, 0
8.608165, 1, 1
8.608191, 1, 0
8.608269, 1, 1
8.608321, 1, 0
8.608425, 1, 1
8.608451, 1, 0
8.608477, 1, 1
8.608529, 1, 0
8.608685, 1, 1
8.608711, 1, 0
8.608737, 1, 1
8.608789, 1, 0
8.608867, 1, 1
8.608893, 1, 0
8.608919, 1, 1
8.608971, 1, 0
8.609205, 1, 1
8.609231, 1, 0
8.609465, 1, 1
8.609491, 1, 0
8.609517, 1, 1
8.609543, 1, 0
8.609621, 1, 1
9.114439, 1, 0
9.114465, 1, 1
9.114491, 1, 0
9.114673, 1, 1
9.114699, 1, 0
9.114751, 1, 1
9.114777, 1, 0
9.114803, 1, 1
9.114829, 1, 0
9.114933, 1, 1
9.114959, 1, 0
9.115115, 1, 1
9.115141, 1, 0
9.115193, 1, 1
9.115219, 1, 0
9.115453, 1, 1
9.115479, 1, 0
9.115505, 1, 1
9.115583, 1, 0
9.115609, 1, 1
9.115635, 1, 0
9.115713, 1, 1
9.115739, 1, 0
9.115817, 1, 1
9.115869, 1, 0
9.115973, 1, 1
9.115999, 1, 0
9.116025, 1, 1
9.116077, 1, 0
9.116233, 1, 1
9.116259, 1, 0
9.116337, 1, 1
9.116363, 1, 0
9.116415, 1, 1
9.116441, 1, 0
9.116467, 1, 1
9.116519, 1, 0
9.116753, 1, 1
9.116779, 1, 0
9.117013, 1, 1
9.117039, 1, 0
9.117117, 1, 1
9.117143, 1, 0
9.117169, 1, 1
9.121590, 0, 0
9.121591, 1, 1
9.622169, 1, 0
9.622195, 1, 1
9.622221, 1, 0
9.622403, 1, 1
9.622429, 1, 0
9.622481, 1, 1
9.622507, 1, 0
9.622533, 1, 1
9.622559, 1, 0
9.622663, 1, 1
9.622689, 1, 0
9.622845, 1, 1
9.622871, 1, 0
9.622923, 1, 1
9.622949, 1, 0
9.623183, 1, 1
9.623209, 1, 0
9.623235, 1, 1
9.623313, 1, 0
9.623339, 1, 1
9.623365, 1, 0
9.623443, 1, 1
9.623469, 1, 0
9.623573, 1, 1
9.623599, 1, 0
9.623703, 1, 1
9.623729, 1, 0
9.623807, 1, 1
9.623833, 1, 0
9.623963, 1, 1
9.623989, 1, 0
9.624015, 1, 1
9.624145, 1, 0
9.624197, 1, 1
9.624249, 1, 0
9.624483, 1, 1
9.624509, 1, 0
9.624743, 1, 1
9.624769, 1, 0
9.624847, 1, 1
9.624899, 1, 0
9.624925, 1, 1
9.654510, 0, 1
9.654536, 1, 1
9.654562, 0, 1
9.654745, 1, 1
9.654771, 0, 1
9.654849, 1, 1
9.654901, 0, 1
9.655005, 1, 1
9.655031, 0, 1
9.655136, 1, 1
9.655240, 0, 1
9.655266, 1, 1
9.655292, 0, 1
9.655344, 1, 1
9.655370, 0, 1
9.655526, 1, 1
9.655553, 0, 1
9.655579, 1, 1
9.655605, 0, 1
9.655787, 1, 1
9.655813, 0, 1
9.655839, 1, 1
9.655865, 0, 1
9.655891, 1, 1
9.655917, 0, 1
9.656048, 1, 1
9.656074, 0, 1
9.656100, 1, 1
9.656152, 0, 1
9.656282, 1, 1
9.656334, 0, 1
9.656360, 1, 1
9.656386, 0, 1
9.656412, 1, 1
9.656438, 0, 1
9.656490, 1, 1
9.656517, 0, 1
9.656569, 1, 1
9.656595, 0, 1
9.656829, 1, 1
9.656855, 0, 1
9.656933, 1, 1
9.656959, 0, 1
9.657090, 1, 1
9.657116, 0, 1
9.657142, 1, 1
9.657168, 0, 1
9.657246, 1, 1
9.657298, 0, 1
9.657324, 1, 1
9.657376, 0, 1
9.657455, 1, 1
9.657481, 0, 1
9.657611, 1, 1
9.657637, 0, 1
9.657663, 1, 1
9.657689, 0, 1
9.657715, 1, 1
9.657767, 0, 1
9.657793, 1, 1
9.854479, 0, 1
9.854714, 1, 1
9.854740, 0, 1
9.854974, 1, 1
9.855000, 0, 1
9.855235, 1, 1
9.855261, 0, 1
9.855495, 1, 1
9.855522, 0, 1
9.855756, 1, 1
9.855782, 0, 1
9.856017, 1, 1
9.856043, 0, 1
9.856277, 1, 1
9.856303, 0, 1
9.856538, 1, 1
9.856564, 0, 1
9.856798, 1, 1
9.856824, 0, 1
9.857059, 1, 1
9.857085, 0, 1
9.857319, 1, 1
9.857345, 0, 1
9.857580, 1, 1
9.857606, 0, 1
9.857840, 1, 1
9.857866, 0, 1
9.858101, 1, 1
9.858127, 0, 1
9.858361, 1, 1
9.858388, 0, 1
9.858622, 1, 1
9.875610, 0, 1
9.875844, 1, 1
9.875870, 0, 1
9.876105, 1, 1
9.876131, 0, 1
9.876365, 1, 1
9.876391, 0, 1
9.876626, 1, 1
9.876652, 0, 1
9.876886, 1, 1
9.876912, 0, 1
9.877147, 1, 1
9.877173, 0, 1
9.877407, 1, 1
9.877433, 0, 1
9.877668, 1, 1
9.877694, 0, 1
9.877928, 1, 1
9.877955, 0, 1
9.878189, 1, 1
9.878215, 0, 1
9.878450, 1, 1
9.878476, 0, 1
9.878710, 1, 1
9.878736, 0, 1
9.878971, 1, 1
9.878997, 0, 1
9.879231, 1, 1
9.879257, 0, 1
9.879492, 1, 1
9.879518, 0, 1
9.879752, 1, 1
9.896505, 0, 1
9.896740, 1, 1
9.896766, 0, 1
9.897000, 1, 1
9.897026, 0, 1
9.897261, 1, 1
9.897287, 0, 1
9.897522, 1, 1
9.897548, 0, 1
9.897782, 1, 1
9.897808, 0, 1
9.898043, 1, 1
9.898069, 0, 1
9.898303, 1, 1
9.898329, 0, 1
9.898564, 1, 1
9.898590, 0, 1
9.898824, 1, 1
9.898850, 0, 1
9.899085, 1, 1
9.899111, 0, 1
9.899345, 1, 1
9.899371, 0, 1
9.899606, 1, 1
9.899632, 0, 1
9.899866, 1, 1
9.899892, 0, 1
9.900127, 1, 1
9.900153, 0, 1
9.900388, 1, 1
9.900414, 0, 1
9.900648, 1, 1
9.917505, 0, 1
9.917740, 1, 1
9.917766, 0, 1
9.918000, 1, 1
9.918026, 0, 1
9.918261, 1, 1
9.918287, 0, 1
9.918522, 1, 1
9.918548, 0, 1
9.918782, 1, 1
9.918808, 0, 1
9.919043, 1, 1
9.919069, 0, 1
9.919303, 1, 1
9.919329, 0, 1
9.919564, 1, 1
9.919590, 0, 1
9.919824, 1, 1
9.919850, 0, 1
9.920085, 1, 1
9.920111, 0, 1
9.920345, 1, 1
9.920371, 0, 1
9.920606, 1, 1
9.920632, 0, 1
9.920866, 1, 1
9.920892, 0, 1
9.921127, 1, 1
9.921153, 0, 1
9.921388, 1, 1
9.921414, 0, 1
9.921648, 1, 1
9.938610, 0, 1
9.938844, 1, 1
9.938870, 0, 1
9.939105, 1, 1
9.939131, 0, 1
9.939365, 1, 1
9.939391, 0, 1
9.939626, 1, 1
9.939652, 0, 1
9.939886, 1, 1
9.939912, 0, 1
9.940147, 1, 1
9.940173, 0, 1
9.940407, 1, 1
9.940433, 0, 1
9.940668, 1, 1
9.940694, 0, 1
9.940928, 1, 1
9.940955, 0, 1
9.941189, 1, 1
