Time[s], Channel 0, Channel 1
0.000000, 1, 1
0.555037, 0, 1
0.555063, 1, 1
0.555089, 0, 1
0.555271, 1, 1
0.555297, 0, 1
0.555323, 1, 1
0.555349, 0, 1
0.555375, 1, 1
0.555401, 0, 1
0.555532, 1, 1
0.555558, 0, 1
0.555584, 1, 1
0.555610, 0, 1
0.555714, 1, 1
0.555740, 0, 1
0.555792, 1, 1
0.555818, 0, 1
0.556053, 1, 1
0.556079, 0, 1
0.556131, 1, 1
0.556157, 0, 1
0.556235, 1, 1
0.556261, 0, 1
0.556313, 1, 1
0.556339, 0, 1
0.556444, 1, 1
0.556470, 0, 1
0.556522, 1, 1
0.556548, 0, 1
0.556574, 1, 1
0.592072, 1, 0
0.592098, 1, 1
0.592124, 1, 0
0.592306, 1, 1
0.592332, 1, 0
0.592410, 1, 1
0.592436, 1, 0
0.592566, 1, 1
0.592592, 1, 0
0.592618, 1, 1
0.592644, 1, 0
0.592748, 1, 1
0.592774, 1, 0
0.592800, 1, 1
0.592852, 1, 0
0.593086, 1, 1
0.593112, 1, 0
0.593138, 1, 1
0.593164, 1, 0
0.593190, 1, 1
0.593216, 1, 0
0.593268, 1, 1
0.593294, 1, 0
0.593320, 1, 1
0.642252, 1, 0
0.642278, 1, 1
0.642304, 1, 0
0.642486, 1, 1
0.642512, 1, 0
0.642564, 1, 1
0.642590, 1, 0
0.642616, 1, 1
0.642642, 1, 0
0.642746, 1, 1
0.642772, 1, 0
0.642928, 1, 1
0.642954, 1, 0
0.643006, 1, 1
0.643032, 1, 0
0.643266, 1, 1
0.643292, 1, 0
0.643370, 1, 1
0.643396, 1, 0
0.643422, 1, 1
0.643448, 1, 0
0.643526, 1, 1
0.643552, 1, 0
0.643656, 1, 1
0.643682, 1, 0
0.643760, 1, 1
0.643812, 1, 0
0.643890, 1, 1
0.643916, 1, 0
0.644046, 1, 1
0.644072, 1, 0
0.644098, 1, 1
0.644332, 1, 0
0.644358, 1, 1
0.644592, 1, 0
0.644826, 1, 1
0.644852, 1, 0
0.644956, 1, 1
0.644982, 1, 0
0.645034, 1, 1
0.692380, 1, 0
0.692406, 1, 1
0.692432, 1, 0
0.692614, 1, 1
0.692640, 1, 0
0.692718, 1, 1
0.692744, 1, 0
0.692770, 1, 1
0.692796, 1, 0
0.692874, 1, 1
0.692900, 1, 0
0.692952, 1, 1
0.692978, 1, 0
0.693056, 1, 1
0.693082, 1, 0
0.693134, 1, 1
0.693160, 1, 0
0.693394, 1, 1
0.693420, 1, 0
0.693446, 1, 1
0.693472, 1, 0
0.693498, 1, 1
0.693524, 1, 0
0.693602, 1, 1
0.693628, 1, 0
0.693654, 1, 1
0.693680, 1, 0
0.693732, 1, 1
0.693758, 1, 0
0.693810, 1, 1
0.693836, 1, 0
0.693914, 1, 1
0.693940, 1, 0
0.694018, 1, 1
0.694044, 1, 0
0.694122, 1, 1
0.694148, 1, 0
0.694174, 1, 1
0.694200, 1, 0
0.694226, 1, 1
0.694252, 1, 0
0.694304, 1, 1
0.694356, 1, 0
0.694434, 1, 1
0.694460, 1, 0
0.694694, 1, 1
0.694720, 1, 0
0.694746, 1, 1
0.694798, 1, 0
0.694824, 1, 1
0.694850, 1, 0
0.694876, 1, 1
0.694980, 1, 0
0.695214, 1, 1
0.695240, 1, 0
0.695474, 1, 1
0.695500, 1, 0
0.695734, 1, 1
0.695760, 1, 0
0.695838, 1, 1
0.695864, 1, 0
0.695994, 1, 1
0.696020, 1, 0
0.696072, 1, 1
0.696098, 1, 0
0.696124, 1, 1
0.696280, 1, 0
0.696306, 1, 1
0.696540, 1, 0
0.696566, 1, 1
0.696800, 1, 0
0.696930, 1, 1
0.696956, 1, 0
0.697008, 1, 1
0.697060, 1, 0
0.697086, 1, 1
0.697112, 1, 0
0.697294, 1, 1
0.697320, 1, 0
0.697554, 1, 1
0.697580, 1, 0
0.697632, 1, 1
0.697658, 1, 0
0.697736, 1, 1
0.697788, 1, 0
0.697814, 1, 1
2.170121, 0, 1
2.170147, 1, 1
2.170173, 0, 1
2.170355, 1, 1
2.170382, 0, 1
2.170408, 1, 1
2.170434, 0, 1
2.170460, 1, 1
2.170486, 0, 1
2.170616, 1, 1
2.170642, 0, 1
2.170772, 1, 1
2.170824, 0, 1
2.170877, 1, 1
2.170903, 0, 1
2.171137, 1, 1
2.171163, 0, 1
2.171189, 1, 1
2.171241, 0, 1
2.171398, 1, 1
2.171424, 0, 1
2.171528, 1, 1
2.171606, 0, 1
2.171658, 1, 1
2.207406, 1, 0
2.207432, 1, 1
2.207458, 1, 0
2.207640, 1, 1
2.207666, 1, 0
2.207744, 1, 1
2.207770, 1, 0
2.207900, 1, 1
2.207926, 1, 0
2.208056, 1, 1
2.208108, 1, 0
2.208134, 1, 1
2.208186, 1, 0
2.208420, 1, 1
2.208446, 1, 0
2.208524, 1, 1
2.208550, 1, 0
2.208576, 1, 1
2.208628, 1, 0
2.208654, 1, 1
2.258392, 1, 0
2.258418, 1, 1
2.258444, 1, 0
2.258626, 1, 1
2.258652, 1, 0
2.258678, 1, 1
2.258704, 1, 0
2.258730, 1, 1
2.258756, 1, 0
2.258886, 1, 1
2.258912, 1, 0
2.259042, 1, 1
2.259120, 1, 0
2.259146, 1, 1
2.259172, 1, 0
2.259406, 1, 1
2.259432, 1, 0
2.259458, 1, 1
2.259484, 1, 0
2.259666, 1, 1
2.259692, 1, 0
2.259744, 1, 1
2.259796, 1, 0
2.259822, 1, 1
2.259900, 1, 0
2.259926, 1, 1
2.309066, 1, 0
2.309092, 1, 1
2.309118, 1, 0
2.309300, 1, 1
2.309326, 1, 0
2.309378, 1, 1
2.309404, 1, 0
2.309430, 1, 1
2.309456, 1, 0
2.309560, 1, 1
2.309586, 1, 0
2.309742, 1, 1
2.309768, 1, 0
2.309820, 1, 1
2.309846, 1, 0
2.310080, 1, 1
2.310106, 1, 0
2.310132, 1, 1
2.310158, 1, 0
2.310236, 1, 1
2.310262, 1, 0
2.310340, 1, 1
2.310366, 1, 0
2.310470, 1, 1
2.310496, 1, 0
2.310600, 1, 1
2.310626, 1, 0
2.310704, 1, 1
2.310730, 1, 0
2.310860, 1, 1
2.310886, 1, 0
2.310912, 1, 1
2.311146, 1, 0
2.311172, 1, 1
2.311406, 1, 0
2.311640, 1, 1
2.311666, 1, 0
2.311692, 1, 1
2.311718, 1, 0
2.311744, 1, 1
2.311770, 1, 0
2.311848, 1, 1
2.311874, 1, 0
2.311900, 1, 1
2.316458, 0, 1
2.316459, 1, 1
2.316674, 0, 0
2.316675, 1, 1
2.764952, 1, 0
2.764978, 1, 1
2.765004, 1, 0
2.765186, 1, 1
2.765212, 1, 0
2.765264, 1, 1
2.765290, 1, 0
2.765316, 1, 1
2.765342, 1, 0
2.765446, 1, 1
2.765472, 1, 0
2.765628, 1, 1
2.765654, 1, 0
2.765706, 1, 1
2.765732, 1, 0
2.765966, 1, 1
2.765992, 1, 0
2.766018, 1, 1
2.766044, 1, 0
2.766122, 1, 1
2.766148, 1, 0
2.766226, 1, 1
2.766252, 1, 0
2.766356, 1, 1
2.766382, 1, 0
2.766486, 1, 1
2.766512, 1, 0
2.766590, 1, 1
2.766616, 1, 0
2.766746, 1, 1
2.766772, 1, 0
2.766798, 1, 1
2.766850, 1, 0
2.767006, 1, 1
2.767032, 1, 0
2.767266, 1, 1
2.767292, 1, 0
2.767526, 1, 1
2.767552, 1, 0
2.767604, 1, 1
2.767630, 1, 0
2.767656, 1, 1
2.767682, 1, 0
2.767734, 1, 1
2.767760, 1, 0
2.767786, 1, 1
3.272474, 1, 0
3.272500, 1, 1
3.272526, 1, 0
3.272708, 1, 1
3.272734, 1, 0
3.272786, 1, 1
3.272812, 1, 0
3.272838, 1, 1
3.272864, 1, 0
3.272968, 1, 1
3.272994, 1, 0
3.273150, 1, 1
3.273176, 1, 0
3.273228, 1, 1
3.273254, 1, 0
3.273488, 1, 1
3.273514, 1, 0
3.273540, 1, 1
3.273566, 1, 0
3.273644, 1, 1
3.273670, 1, 0
3.273748, 1, 1
3.273774, 1, 0
3.273878, 1, 1
3.273904, 1, 0
3.274008, 1, 1
3.274762, 1, 0
3.274840, 1, 1
3.274866, 1, 0
3.274996, 1, 1
3.275022, 1, 0
3.275048, 1, 1
3.275074, 1, 0
3.275100, 1, 1
3.275152, 1, 0
3.275256, 1, 1
3.275282, 1, 0
3.275516, 1, 1
3.275542, 1, 0
3.275776, 1, 1
3.275802, 1, 0
3.275880, 1, 1
3.275906, 1, 0
3.275932, 1, 1
3.275958, 1, 0
3.275984, 1, 1
3.276010, 1, 0
3.276036, 1, 1
3.777292, 1, 0
3.777318, 1, 1
3.777344, 1, 0
3.777526, 1, 1
3.777552, 1, 0
3.777604, 1, 1
3.777630, 1, 0
3.777656, 1, 1
3.777682, 1, 0
3.777786, 1, 1
3.777812, 1, 0
3.777968, 1, 1
3.777994, 1, 0
3.778046, 1, 1
3.778072, 1, 0
3.778306, 1, 1
3.779346, 1, 0
3.779372, 1, 1
3.779398, 1, 0
3.779476, 1, 1
3.779502, 1, 0
3.779580, 1, 1
3.779606, 1, 0
3.779710, 1, 1
3.779736, 1, 0
3.779840, 1, 1
3.779866, 1, 0
3.779944, 1, 1
3.779970, 1, 0
3.780100, 1, 1
3.780126, 1, 0
3.780152, 1, 1
3.780204, 1, 0
3.780230, 1, 1
3.780282, 1, 0
3.780360, 1, 1
3.780386, 1, 0
3.780620, 1, 1
3.780646, 1, 0
3.780880, 1, 1
3.780906, 1, 0
3.780958, 1, 1
3.780984, 1, 0
3.781062, 1, 1
3.781114, 1, 0
3.781140, 1, 1
4.283696, 1, 0
4.283722, 1, 1
4.283748, 1, 0
4.283930, 1, 1
4.283956, 1, 0
4.284008, 1, 1
4.284034, 1, 0
4.284060, 1, 1
4.284086, 1, 0
4.284190, 1, 1
4.284216, 1, 0
4.284372, 1, 1
4.284398, 1, 0
4.284450, 1, 1
4.284476, 1, 0
4.284710, 1, 1
4.284736, 1, 0
4.284762, 1, 1
4.284788, 1, 0
4.284866, 1, 1
4.284892, 1, 0
4.284970, 1, 1
4.284996, 1, 0
4.285100, 1, 1
4.285126, 1, 0
4.285230, 1, 1
4.285256, 1, 0
4.285334, 1, 1
4.285360, 1, 0
4.285490, 1, 1
4.285516, 1, 0
4.285568, 1, 1
4.285594, 1, 0
4.285620, 1, 1
4.285646, 1, 0
4.285672, 1, 1
4.285698, 1, 0
4.285750, 1, 1
4.285776, 1, 0
4.286010, 1, 1
4.286036, 1, 0
4.286270, 1, 1
4.287232, 1, 0
4.287258, 1, 1
4.287284, 1, 0
4.287362, 1, 1
4.287440, 1, 0
4.287466, 1, 1
4.790749, 1, 0
4.790775, 1, 1
4.790801, 1, 0
4.790983, 1, 1
4.791009, 1, 0
4.791061, 1, 1
4.791087, 1, 0
4.791113, 1, 1
4.791139, 1, 0
4.791243, 1, 1
4.791269, 1, 0
4.791425, 1, 1
4.791451, 1, 0
4.791503, 1, 1
4.791529, 1, 0
4.791763, 1, 1
4.791789, 1, 0
4.791815, 1, 1
4.791841, 1, 0
4.791919, 1, 1
4.791945, 1, 0
4.792023, 1, 1
4.792049, 1, 0
4.792153, 1, 1
4.792179, 1, 0
4.792283, 1, 1
4.792309, 1, 0
4.792387, 1, 1
4.792413, 1, 0
4.792543, 1, 1
4.792569, 1, 0
4.792595, 1, 1
4.792621, 1, 0
4.792673, 1, 1
4.792751, 1, 0
4.792803, 1, 1
4.792829, 1, 0
4.793063, 1, 1
4.793089, 1, 0
4.793323, 1, 1
4.793349, 1, 0
4.793557, 1, 1
5.296789, 1, 0
5.296815, 1, 1
5.296841, 1, 0
5.297023, 1, 1
5.297049, 1, 0
5.297101, 1, 1
5.297127, 1, 0
5.297153, 1, 1
5.297179, 1, 0
5.297283, 1, 1
5.297309, 1, 0
5.297465, 1, 1
5.297491, 1, 0
5.297543, 1, 1
5.297569, 1, 0
5.297803, 1, 1
5.297829, 1, 0
5.297855, 1, 1
5.297881, 1, 0
5.297959, 1, 1
5.297985, 1, 0
5.298063, 1, 1
5.298089, 1, 0
5.298193, 1, 1
5.298219, 1, 0
5.298323, 1, 1
5.298349, 1, 0
5.298427, 1, 1
5.298453, 1, 0
5.298583, 1, 1
5.298609, 1, 0
5.298713, 1, 1
5.298739, 1, 0
5.298791, 1, 1
5.298817, 1, 0
5.298843, 1, 1
5.298869, 1, 0
5.299103, 1, 1
5.299129, 1, 0
5.299363, 1, 1
5.299389, 1, 0
5.299415, 1, 1
5.299519, 1, 0
5.299597, 1, 1
5.586472, 0, 1
5.586498, 1, 1
5.586524, 0, 1
5.586707, 1, 1
5.586733, 0, 1
5.586759, 1, 1
5.586785, 0, 1
5.586811, 1, 1
5.586837, 0, 1
5.586967, 1, 1
5.586993, 0, 1
5.587019, 1, 1
5.587045, 0, 1
5.587149, 1, 1
5.587175, 0, 1
5.587228, 1, 1
5.587254, 0, 1
5.587488, 1, 1
5.587514, 0, 1
5.587566, 1, 1
5.587592, 0, 1
5.587671, 1, 1
5.587697, 0, 1
5.587749, 1, 1
5.587775, 0, 1
5.587879, 1, 1
5.587905, 0, 1
5.587957, 1, 1
5.587983, 0, 1
5.588009, 1, 1
5.601250, 1, 0
5.601276, 1, 1
5.601302, 1, 0
5.601484, 1, 1
5.601510, 1, 0
5.601588, 1, 1
5.601614, 1, 0
5.601744, 1, 1
5.601770, 1, 0
5.601796, 1, 1
5.601822, 1, 0
5.601926, 1, 1
5.601952, 1, 0
5.601978, 1, 1
5.602030, 1, 0
5.602264, 1, 1
5.602290, 1, 0
5.602316, 1, 1
5.602342, 1, 0
5.602368, 1, 1
5.602394, 1, 0
5.602446, 1, 1
5.602472, 1, 0
5.602498, 1, 1
5.651795, 1, 0
5.651821, 1, 1
5.651847, 1, 0
5.652029, 1, 1
5.652055, 1, 0
5.652107, 1, 1
5.652133, 1, 0
5.652159, 1, 1
5.652185, 1, 0
5.652289, 1, 1
5.652315, 1, 0
5.652471, 1, 1
5.652497, 1, 0
5.652549, 1, 1
5.652575, 1, 0
5.652809, 1, 1
5.652835, 1, 0
5.652861, 1, 1
5.652887, 1, 0
5.652965, 1, 1
5.652991, 1, 0
5.653069, 1, 1
5.653095, 1, 0
5.653199, 1, 1
5.653225, 1, 0
5.653329, 1, 1
5.653355, 1, 0
5.653433, 1, 1
5.653459, 1, 0
5.653589, 1, 1
5.653615, 1, 0
5.653641, 1, 1
5.653667, 1, 0
5.653745, 1, 1
5.653771, 1, 0
5.653797, 1, 1
5.653823, 1, 0
5.653849, 1, 1
5.653875, 1, 0
5.654109, 1, 1
5.654135, 1, 0
5.654369, 1, 1
5.654395, 1, 0
5.654499, 1, 1
5.654551, 1, 0
5.654603, 1, 1
5.702365, 1, 0
5.702391, 1, 1
5.702417, 1, 0
5.702599, 1, 1
5.702625, 1, 0
5.702703, 1, 1
5.702729, 1, 0
5.702755, 1, 1
5.702781, 1, 0
5.702859, 1, 1
5.702885, 1, 0
5.702937, 1, 1
5.702963, 1, 0
5.703041, 1, 1
5.703067, 1, 0
5.703119, 1, 1
5.703145, 1, 0
5.703379, 1, 1
5.703405, 1, 0
5.703431, 1, 1
5.703457, 1, 0
5.703483, 1, 1
5.703509, 1, 0
5.703587, 1, 1
5.703613, 1, 0
5.703639, 1, 1
5.703665, 1, 0
5.703717, 1, 1
5.703743, 1, 0
5.703795, 1, 1
5.703821, 1, 0
5.703899, 1, 1
5.703925, 1, 0
5.704003, 1, 1
5.704029, 1, 0
5.704107, 1, 1
5.704133, 1, 0
5.704159, 1, 1
5.704185, 1, 0
5.704211, 1, 1
5.704237, 1, 0
5.704289, 1, 1
5.704341, 1, 0
5.704419, 1, 1
5.704445, 1, 0
5.704679, 1, 1
5.704705, 1, 0
5.704731, 1, 1
5.704783, 1, 0
5.704809, 1, 1
5.704835, 1, 0
5.704861, 1, 1
5.704965, 1, 0
5.705199, 1, 1
5.705225, 1, 0
5.705459, 1, 1
5.705485, 1, 0
5.705719, 1, 1
5.705745, 1, 0
5.705823, 1, 1
5.705849, 1, 0
5.705979, 1, 1
5.706005, 1, 0
5.706057, 1, 1
5.706083, 1, 0
5.706109, 1, 1
5.706265, 1, 0
5.706291, 1, 1
5.706317, 1, 0
5.706395, 1, 1
5.706421, 1, 0
5.706447, 1, 1
5.706473, 1, 0
5.706499, 1, 1
5.706525, 1, 0
5.706759, 1, 1
5.706785, 1, 0
5.706915, 1, 1
5.706941, 1, 0
5.706993, 1, 1
5.707045, 1, 0
5.707071, 1, 1
5.707097, 1, 0
5.707279, 1, 1
5.707305, 1, 0
5.707539, 1, 1
5.707565, 1, 0
5.707591, 1, 1
5.707617, 1, 0
5.707643, 1, 1
5.707669, 1, 0
5.707695, 1, 1
5.707747, 1, 0
5.707773, 1, 1
5.802959, 1, 0
5.802985, 1, 1
5.803011, 1, 0
5.803193, 1, 1
5.803219, 1, 0
5.803271, 1, 1
5.803297, 1, 0
5.803323, 1, 1
5.803349, 1, 0
5.803453, 1, 1
5.803479, 1, 0
5.803635, 1, 1
5.803661, 1, 0
5.803713, 1, 1
5.803739, 1, 0
5.803973, 1, 1
5.803999, 1, 0
5.804025, 1, 1
5.804051, 1, 0
5.804129, 1, 1
5.804155, 1, 0
5.804233, 1, 1
5.804259, 1, 0
5.804363, 1, 1
5.804389, 1, 0
5.804493, 1, 1
5.804519, 1, 0
5.804597, 1, 1
5.804623, 1, 0
5.804753, 1, 1
5.804779, 1, 0
5.804805, 1, 1
5.804883, 1, 0
5.804909, 1, 1
5.804935, 1, 0
5.804961, 1, 1
5.804987, 1, 0
5.805013, 1, 1
5.805039, 1, 0
5.805273, 1, 1
5.805299, 1, 0
5.805533, 1, 1
5.805559, 1, 0
5.805611, 1, 1
5.805715, 1, 0
5.805767, 1, 1
6.311235, 1, 0
6.311261, 1, 1
6.311287, 1, 0
6.311469, 1, 1
6.311495, 1, 0
6.311547, 1, 1
6.311573, 1, 0
6.311599, 1, 1
6.311625, 1, 0
6.311729, 1, 1
6.311755, 1, 0
6.311911, 1, 1
6.311937, 1, 0
6.311989, 1, 1
6.312015, 1, 0
6.312249, 1, 1
6.312275, 1, 0
6.312301, 1, 1
6.312327, 1, 0
6.312405, 1, 1
6.312431, 1, 0
6.312509, 1, 1
6.312535, 1, 0
6.312639, 1, 1
6.312665, 1, 0
6.312769, 1, 1
6.312795, 1, 0
6.312873, 1, 1
6.312899, 1, 0
6.313029, 1, 1
6.313055, 1, 0
6.313081, 1, 1
6.313159, 1, 0
6.313211, 1, 1
6.313263, 1, 0
6.313289, 1, 1
6.313315, 1, 0
6.313549, 1, 1
6.313575, 1, 0
6.313809, 1, 1
6.313835, 1, 0
6.313887, 1, 1
6.313965, 1, 0
6.313991, 1, 1
6.314017, 1, 0
6.314043, 1, 1
6.818341, 1, 0
6.818367, 1, 1
6.818393, 1, 0
6.818575, 1, 1
6.818601, 1, 0
6.818653, 1, 1
6.818679, 1, 0
6.818705, 1, 1
6.818731, 1, 0
6.818835, 1, 1
6.818861, 1, 0
6.819017, 1, 1
6.819043, 1, 0
6.819095, 1, 1
6.819121, 1, 0
6.819355, 1, 1
6.819381, 1, 0
6.819407, 1, 1
6.819433, 1, 0
6.819511, 1, 1
6.819537, 1, 0
6.819615, 1, 1
6.819641, 1, 0
6.819745, 1, 1
6.819771, 1, 0
6.819875, 1, 1
6.819901, 1, 0
6.819979, 1, 1
6.820005, 1, 0
6.820135, 1, 1
6.820161, 1, 0
6.820187, 1, 1
6.820213, 1, 0
6.820239, 1, 1
6.820265, 1, 0
6.820291, 1, 1
6.820369, 1, 0
6.820395, 1, 1
6.820421, 1, 0
6.820655, 1, 1
6.820681, 1, 0
6.820915, 1, 1
6.820941, 1, 0
6.821019, 1, 1
6.821123, 1, 0
6.821149, 1, 1
7.325395, 1, 0
7.325421, 1, 1
7.325447, 1, 0
7.325629, 1, 1
7.325655, 1, 0
7.325707, 1, 1
7.325733, 1, 0
7.325759, 1, 1
7.325785, 1, 0
7.325889, 1, 1
7.325915, 1, 0
7.326071, 1, 1
7.326097, 1, 0
7.326149, 1, 1
7.326175, 1, 0
7.326409, 1, 1
7.326435, 1, 0
7.326461, 1, 1
7.326487, 1, 0
7.326565, 1, 1
7.326591, 1, 0
7.326669, 1, 1
7.326695, 1, 0
7.326799, 1, 1
7.326825, 1, 0
7.326929, 1, 1
7.326955, 1, 0
7.327033, 1, 1
7.327059, 1, 0
7.327189, 1, 1
7.327215, 1, 0
7.327241, 1, 1
7.327267, 1, 0
7.327293, 1, 1
7.327319, 1, 0
7.327423, 1, 1
7.327475, 1, 0
7.327709, 1, 1
7.327735, 1, 0
7.327969, 1, 1
7.327995, 1, 0
7.328073, 1, 1
7.328125, 1, 0
7.328177, 1, 1
7.833853, 1, 0
7.833879, 1, 1
7.833905, 1, 0
7.834087, 1, 1
7.834113, 1, 0
7.834165, 1, 1
7.834191, 1, 0
7.834217, 1, 1
7.834243, 1, 0
7.834347, 1, 1
7.834373, 1, 0
7.834529, 1, 1
7.834555, 1, 0
7.834607, 1, 1
7.834633, 1, 0
7.834867, 1, 1
7.834893, 1, 0
7.834919, 1, 1
7.834945, 1, 0
7.835023, 1, 1
7.835049, 1, 0
7.835127, 1, 1
7.835153, 1, 0
7.835257, 1, 1
7.835283, 1, 0
7.835387, 1, 1
7.835413, 1, 0
7.835491, 1, 1
7.835517, 1, 0
7.835647, 1, 1
7.835673, 1, 0
7.835751, 1, 1
7.835777, 1, 0
7.835803, 1, 1
7.835829, 1, 0
7.835881, 1, 1
7.835933, 1, 0
7.836167, 1, 1
7.836193, 1, 0
7.836427, 1, 1
7.836453, 1, 0
7.836479, 1, 1
7.836531, 1, 0
7.836557, 1, 1
7.836609, 1, 0
7.836635, 1, 1
8.342389, 1, 0
8.342415, 1, 1
8.342441, 1, 0
8.342623, 1, 1
8.342649, 1, 0
8.342701, 1, 1
8.342727, 1, 0
8.342753, 1, 1
8.342779, 1, 0
8.342883, 1, 1
8.342909, 1, 0
8.343065, 1, 1
8.343091, 1, 0
8.343143, 1, 1
8.343169, 1, 0
8.343403, 1, 1
8.343429, 1, 0
8.343455, 1, 1
8.343481, 1, 0
8.343559, 1, 1
8.343585, 1, 0
8.343663, 1, 1
8.343689, 1, 0
8.343793, 1, 1
8.343819, 1, 0
8.343923, 1, 1
8.343949, 1, 0
8.344027, 1, 1
8.344053, 1, 0
8.344183, 1, 1
8.344209, 1, 0
8.344235, 1, 1
8.344287, 1, 0
8.344365, 1, 1
8.344391, 1, 0
8.344417, 1, 1
8.344469, 1, 0
8.344703, 1, 1
8.344729, 1, 0
8.344963, 1, 1
8.344989, 1, 0
8.345041, 1, 1
8.345067, 1, 0
8.345093, 1, 1
8.345119, 1, 0
8.345145, 1, 1
8.851886, 1, 0
8.851912, 1, 1
8.851938, 1, 0
8.852120, 1, 1
8.852146, 1, 0
8.852198, 1, 1
8.852224, 1, 0
8.852250, 1, 1
8.852276, 1, 0
8.852380, 1, 1
8.852406, 1, 0
8.852562, 1, 1
8.852588, 1, 0
8.852640, 1, 1
8.852666, 1, 0
8.852900, 1, 1
8.852926, 1, 0
8.852952, 1, 1
8.852978, 1, 0
8.853056, 1, 1
8.853082, 1, 0
8.853160, 1, 1
8.853186, 1, 0
8.853290, 1, 1
8.853316, 1, 0
8.853420, 1, 1
8.853446, 1, 0
8.853524, 1, 1
8.853550, 1, 0
8.853680, 1, 1
8.853706, 1, 0
8.853732, 1, 1
8.853784, 1, 0
8.853836, 1, 1
8.853888, 1, 0
8.853914, 1, 1
8.853966, 1, 0
8.854200, 1, 1
8.854226, 1, 0
8.854460, 1, 1
8.854486, 1, 0
8.854538, 1, 1
8.854564, 1, 0
8.854590, 1, 1
9.361982, 1, 0
9.362008, 1, 1
9.362034, 1, 0
9.362216, 1, 1
9.362242, 1, 0
9.362294, 1, 1
9.362320, 1, 0
9.362346, 1, 1
9.362372, 1, 0
9.362476, 1, 1
9.362502, 1, 0
9.362658, 1, 1
9.362684, 1, 0
9.362736, 1, 1
9.362762, 1, 0
9.362996, 1, 1
9.363022, 1, 0
9.363048, 1, 1
9.363074, 1, 0
9.363152, 1, 1
9.363178, 1, 0
9.363256, 1, 1
9.363282, 1, 0
9.363386, 1, 1
9.363412, 1, 0
9.363516, 1, 1
9.363542, 1, 0
9.363620, 1, 1
9.363646, 1, 0
9.363776, 1, 1
9.363802, 1, 0
9.363854, 1, 1
9.363880, 1, 0
9.363984, 1, 1
9.364062, 1, 0
9.364296, 1, 1
9.364322, 1, 0
9.364556, 1, 1
9.364582, 1, 0
9.364608, 1, 1
9.364634, 1, 0
9.364686, 1, 1
9.364712, 1, 0
9.364816, 1, 1
9.869556, 1, 0
9.869582, 1, 1
9.869608, 1, 0
9.869790, 1, 1
9.869816, 1, 0
9.869868, 1, 1
9.869894, 1, 0
9.869920, 1, 1
9.869946, 1, 0
9.870050, 1, 1
9.870076, 1, 0
9.870232, 1, 1
9.870258, 1, 0
9.870310, 1, 1
9.870336, 1, 0
9.870570, 1, 1
9.870596, 1, 0
9.870622, 1, 1
9.870648, 1, 0
9.870726, 1, 1
9.870752, 1, 0
9.870830, 1, 1
9.870856, 1, 0
9.870960, 1, 1
9.870986, 1, 0
9.871090, 1, 1
9.871116, 1, 0
9.871194, 1, 1
9.871220, 1, 0
9.871350, 1, 1
9.871376, 1, 0
9.871402, 1, 1
9.871428, 1, 0
9.871506, 1, 1
9.871532, 1, 0
9.871558, 1, 1
9.871636, 1, 0
9.871870, 1, 1
9.871896, 1, 0
9.872130, 1, 1
9.872156, 1, 0
9.872260, 1, 1
9.872312, 1, 0
9.872390, 1, 1
10.380562, 1, 0
10.380588, 1, 1
10.380614, 1, 0
10.380796, 1, 1
10.380822, 1, 0
10.380874, 1, 1
10.380900, 1, 0
10.380926, 1, 1
10.380952, 1, 0
10.381056, 1, 1
10.382174, 1, 0
10.382330, 1, 1
10.382356, 1, 0
10.382408, 1, 1
10.382434, 1, 0
10.382668, 1, 1
10.382694, 1, 0
10.382720, 1, 1
10.382746, 1, 0
10.382824, 1, 1
10.382850, 1, 0
10.382928, 1, 1
10.382954, 1, 0
10.383058, 1, 1
10.383084, 1, 0
10.383188, 1, 1
10.383214, 1, 0
10.383292, 1, 1
10.383318, 1, 0
10.383448, 1, 1
10.383474, 1, 0
10.383500, 1, 1
10.383526, 1, 0
10.383630, 1, 1
10.383734, 1, 0
10.383968, 1, 1
10.383994, 1, 0
10.384228, 1, 1
10.384254, 1, 0
10.384358, 1, 1
10.384384, 1, 0
10.384410, 1, 1
10.384436, 1, 0
10.384488, 1, 1
10.613704, 0, 1
10.613730, 1, 1
10.613756, 0, 1
10.613939, 1, 1
10.613965, 0, 1
10.613991, 1, 1
10.614017, 0, 1
10.614043, 1, 1
10.614069, 0, 1
10.614199, 1, 1
10.614225, 0, 1
10.614251, 1, 1
10.614277, 0, 1
10.614381, 1, 1
10.614408, 0, 1
10.614460, 1, 1
10.614486, 0, 1
10.614720, 1, 1
10.614746, 0, 1
10.614798, 1, 1
10.614824, 0, 1
10.614903, 1, 1
10.614929, 0, 1
10.614981, 1, 1
10.615007, 0, 1
10.615111, 1, 1
10.615137, 0, 1
10.615189, 1, 1
10.615215, 0, 1
10.615241, 1, 1
10.813699, 0, 1
10.813934, 1, 1
10.813960, 0, 1
10.814194, 1, 1
10.814220, 0, 1
10.814455, 1, 1
10.814481, 0, 1
10.814715, 1, 1
10.814741, 0, 1
10.814976, 1, 1
10.815002, 0, 1
10.815236, 1, 1
10.815262, 0, 1
10.815497, 1, 1
10.815523, 0, 1
10.815757, 1, 1
10.815783, 0, 1
10.816018, 1, 1
10.816044, 0, 1
10.816279, 1, 1
10.816305, 0, 1
10.816539, 1, 1
10.816565, 0, 1
10.816800, 1, 1
10.816826, 0, 1
10.817060, 1, 1
10.817086, 0, 1
10.817321, 1, 1
10.817347, 0, 1
10.817581, 1, 1
10.817607, 0, 1
10.817842, 1, 1
10.834699, 0, 1
10.834934, 1, 1
10.834960, 0, 1
10.835194, 1, 1
10.835220, 0, 1
10.835455, 1, 1
10.835481, 0, 1
10.835715, 1, 1
10.835741, 0, 1
10.835976, 1, 1
10.836002, 0, 1
10.836236, 1, 1
10.836262, 0, 1
10.836497, 1, 1
10.836523, 0, 1
10.836757, 1, 1
10.836783, 0, 0
10.836784, 0, 1
10.837018, 1, 1
10.837044, 0, 1
10.837279, 1, 1
10.837305, 0, 1
10.837539, 1, 1
10.837565, 0, 1
10.837800, 1, 1
10.837826, 0, 1
10.838060, 1, 1
10.838086, 0, 1
10.838321, 1, 1
10.838347, 0, 1
10.838581, 1, 1
10.838607, 0, 1
10.838842, 1, 1
10.855829, 0, 1
10.856064, 1, 1
10.856090, 0, 1
10.856324, 1, 1
10.856350, 0, 1
10.856585, 1, 1
10.856611, 0, 1
10.856846, 1, 1
10.856872, 0, 1
