Time[s], Channel 0, Channel 1
0.000000, 1, 1
2.072181, 0, 1
2.072207, 1, 1
2.072233, 0, 1
2.072415, 1, 1
2.072441, 0, 1
2.072467, 1, 1
2.072493, 0, 1
2.072519, 1, 1
2.072546, 0, 1
2.072676, 1, 1
2.072702, 0, 1
2.072728, 1, 1
2.072754, 0, 1
2.072858, 1, 1
2.072884, 0, 1
2.072936, 1, 1
2.072962, 0, 1
2.073197, 1, 1
2.073223, 0, 1
2.073275, 1, 1
2.073301, 0, 1
2.073379, 1, 1
2.073405, 0, 1
2.073457, 1, 1
2.073484, 0, 1
2.073588, 1, 1
2.073614, 0, 1
2.073666, 1, 1
2.073692, 0, 1
2.073718, 1, 1
2.110889, 1, 0
2.110915, 1, 1
2.110941, 1, 0
2.111123, 1, 1
2.111149, 1, 0
2.111227, 1, 1
2.111253, 1, 0
2.111383, 1, 1
2.111409, 1, 0
2.111435, 1, 1
2.111461, 1, 0
2.111565, 1, 1
2.111591, 1, 0
2.111617, 1, 1
2.111669, 1, 0
2.111903, 1, 1
2.111929, 1, 0
2.111955, 1, 1
2.111981, 1, 0
2.112007, 1, 1
2.112033, 1, 0
2.112085, 1, 1
2.112111, 1, 0
2.112137, 1, 1
2.161044, 1, 0
2.161070, 1, 1
2.161096, 1, 0
2.161278, 1, 1
2.161304, 1, 0
2.161356, 1, 1
2.161382, 1, 0
2.161408, 1, 1
2.161434, 1, 0
2.161538, 1, 1
2.161564, 1, 0
2.161720, 1, 1
2.161746, 1, 0
2.161798, 1, 1
2.161824, 1, 0
2.162058, 1, 1
2.162084, 1, 0
2.162136, 1, 1
2.162162, 1, 0
2.162318, 1, 1
2.162344, 1, 0
2.162448, 1, 1
2.162474, 1, 0
2.162526, 1, 1
2.162552, 1, 0
2.162578, 1, 1
2.162604, 1, 0
2.162656, 1, 1
2.162682, 1, 0
2.162838, 1, 1
2.162864, 1, 0
2.162890, 1, 1
2.162916, 1, 0
2.162994, 1, 1
2.163020, 1, 0
2.163072, 1, 1
2.163124, 1, 0
2.163150, 1, 1
2.163176, 1, 0
2.163358, 1, 1
2.163384, 1, 0
2.163618, 1, 1
2.163644, 1, 0
2.163748, 1, 1
2.163774, 1, 0
2.163878, 1, 1
2.212186, 1, 0
2.212212, 1, 1
2.212238, 1, 0
2.212420, 1, 1
2.212446, 1, 0
2.212524, 1, 1
2.212550, 1, 0
2.212576, 1, 1
2.212602, 1, 0
2.212680, 1, 1
2.212706, 1, 0
2.212758, 1, 1
2.212784, 1, 0
2.212862, 1, 1
2.212888, 1, 0
2.212940, 1, 1
2.212966, 1, 0
2.213200, 1, 1
2.213226, 1, 0
2.213252, 1, 1
2.213278, 1, 0
2.213304, 1, 1
2.213330, 1, 0
2.213408, 1, 1
2.213434, 1, 0
2.213460, 1, 1
2.213486, 1, 0
2.213538, 1, 1
2.213564, 1, 0
2.213616, 1, 1
2.213642, 1, 0
2.213720, 1, 1
2.213746, 1, 0
2.213824, 1, 1
2.213850, 1, 0
2.213928, 1, 1
2.213954, 1, 0
2.213980, 1, 1
2.214006, 1, 0
2.214032, 1, 1
2.214058, 1, 0
2.214110, 1, 1
2.214162, 1, 0
2.214240, 1, 1
2.214266, 1, 0
2.214500, 1, 1
2.214526, 1, 0
2.214578, 1, 1
2.214656, 1, 0
2.214682, 1, 1
2.214786, 1, 0
2.215020, 1, 1
2.215046, 1, 0
2.215280, 1, 1
2.215306, 1, 0
2.215540, 1, 1
2.215566, 1, 0
2.215618, 1, 1
2.215644, 1, 0
2.215800, 1, 1
2.215826, 1, 0
2.215878, 1, 1
2.215904, 1, 0
2.215930, 1, 1
2.216086, 1, 0
2.216112, 1, 1
2.216138, 1, 0
2.216216, 1, 1
2.216242, 1, 0
2.216294, 1, 1
2.216346, 1, 0
2.216372, 1, 1
2.216398, 1, 0
2.216580, 1, 1
2.216606, 1, 0
2.216736, 1, 1
2.216762, 1, 0
2.216814, 1, 1
2.216866, 1, 0
2.216892, 1, 1
2.216918, 1, 0
2.217100, 1, 1
2.217126, 1, 0
2.217360, 1, 1
2.217386, 1, 0
2.217412, 1, 1
2.217490, 1, 0
2.217516, 1, 1
7.079528, 0, 1
7.079554, 1, 1
7.079580, 0, 1
7.079762, 1, 1
7.079788, 0, 1
7.079814, 1, 1
7.079840, 0, 1
7.079867, 1, 1
7.079893, 0, 1
7.080023, 1, 1
7.080049, 0, 1
7.080075, 1, 1
7.080101, 0, 1
7.080205, 1, 1
7.080231, 0, 1
7.080283, 1, 1
7.080309, 0, 1
7.080544, 1, 1
7.080570, 0, 1
7.080622, 1, 1
7.080648, 0, 1
7.080726, 1, 1
7.080752, 0, 1
7.080804, 1, 1
7.080831, 0, 1
7.080935, 1, 1
7.080961, 0, 1
7.081013, 1, 1
7.081039, 0, 1
7.081065, 1, 1
7.111648, 1, 0
7.111674, 1, 1
7.111700, 1, 0
7.111882, 1, 1
7.111908, 1, 0
7.111986, 1, 1
7.112012, 1, 0
7.112142, 1, 1
7.112168, 1, 0
7.112194, 1, 1
7.112220, 1, 0
7.112324, 1, 1
7.112350, 1, 0
7.112376, 1, 1
7.112428, 1, 0
7.112662, 1, 1
7.112688, 1, 0
7.112714, 1, 1
7.112740, 1, 0
7.112766, 1, 1
7.112792, 1, 0
7.112844, 1, 1
7.112870, 1, 0
7.112896, 1, 1
7.162374, 1, 0
7.162400, 1, 1
7.162426, 1, 0
7.162608, 1, 1
7.162634, 1, 0
7.162686, 1, 1
7.162712, 1, 0
7.162738, 1, 1
7.162764, 1, 0
7.162868, 1, 1
7.162894, 1, 0
7.163050, 1, 1
7.163076, 1, 0
7.163128, 1, 1
7.163154, 1, 0
7.163388, 1, 1
7.163414, 1, 0
7.163466, 1, 1
7.163492, 1, 0
7.163648, 1, 1
7.163674, 1, 0
7.163778, 1, 1
7.163804, 1, 0
7.163856, 1, 1
7.163882, 1, 0
7.163908, 1, 1
7.163934, 1, 0
7.163986, 1, 1
7.164012, 1, 0
7.164168, 1, 1
7.164194, 1, 0
7.164220, 1, 1
7.164246, 1, 0
7.164324, 1, 1
7.164350, 1, 0
7.164402, 1, 1
7.164454, 1, 0
7.164480, 1, 1
7.164506, 1, 0
7.164688, 1, 1
7.164714, 1, 0
7.164948, 1, 1
7.164974, 1, 0
7.165078, 1, 1
7.165104, 1, 0
7.165208, 1, 1
7.211592, 1, 0
7.211618, 1, 1
7.211644, 1, 0
7.211826, 1, 1
7.211852, 1, 0
7.211930, 1, 1
7.211956, 1, 0
7.211982, 1, 1
7.212008, 1, 0
7.212086, 1, 1
7.212112, 1, 0
7.212164, 1, 1
7.212190, 1, 0
7.212268, 1, 1
7.212294, 1, 0
7.212346, 1, 1
7.212372, 1, 0
7.212606, 1, 1
7.212632, 1, 0
7.212658, 1, 1
7.212684, 1, 0
7.212710, 1, 1
7.212736, 1, 0
7.212814, 1, 1
7.212840, 1, 0
7.212866, 1, 1
7.212892, 1, 0
7.212944, 1, 1
7.212970, 1, 0
7.213022, 1, 1
7.213048, 1, 0
7.213126, 1, 1
7.213152, 1, 0
7.213230, 1, 1
7.213256, 1, 0
7.213334, 1, 1
7.213360, 1, 0
7.213386, 1, 1
7.213412, 1, 0
7.213438, 1, 1
7.213464, 1, 0
7.213516, 1, 1
7.213568, 1, 0
7.213646, 1, 1
7.213672, 1, 0
7.213906, 1, 1
7.213932, 1, 0
7.213984, 1, 1
7.214062, 1, 0
7.214088, 1, 1
7.214192, 1, 0
7.214426, 1, 1
7.214452, 1, 0
7.214686, 1, 1
7.214712, 1, 0
7.214946, 1, 1
7.214972, 1, 0
7.215024, 1, 1
7.215050, 1, 0
7.215206, 1, 1
7.215232, 1, 0
7.215284, 1, 1
7.215310, 1, 0
7.215336, 1, 1
7.215492, 1, 0
7.215518, 1, 1
7.215544, 1, 0
7.215622, 1, 1
7.215648, 1, 0
7.215700, 1, 1
7.215752, 1, 0
7.215778, 1, 1
7.215804, 1, 0
7.215986, 1, 1
7.216012, 1, 0
7.216142, 1, 1
7.216168, 1, 0
7.216220, 1, 1
7.216272, 1, 0
7.216298, 1, 1
7.216324, 1, 0
7.216506, 1, 1
7.216532, 1, 0
7.216766, 1, 1
7.216792, 1, 0
7.216818, 1, 1
7.216896, 1, 0
7.216922, 1, 1
12.085943, 0, 1
12.085969, 1, 1
12.085995, 0, 1
12.086177, 1, 1
12.086203, 0, 1
12.086229, 1, 1
12.086255, 0, 1
12.086281, 1, 1
12.086307, 0, 1
12.086438, 1, 1
12.086464, 0, 1
12.086490, 1, 1
12.086516, 0, 1
12.086620, 1, 1
12.086646, 0, 1
12.086698, 1, 1
12.086724, 0, 1
12.086959, 1, 1
12.086985, 0, 1
12.087037, 1, 1
12.087063, 0, 1
12.087141, 1, 1
12.087167, 0, 1
12.087219, 1, 1
12.087245, 0, 1
12.087350, 1, 1
12.087376, 0, 1
12.087428, 1, 1
12.087454, 0, 1
12.087480, 1, 1
12.113134, 1, 0
12.113160, 1, 1
12.113186, 1, 0
12.113368, 1, 1
12.113394, 1, 0
12.113472, 1, 1
12.113498, 1, 0
12.113628, 1, 1
12.113654, 1, 0
12.113680, 1, 1
12.113706, 1, 0
12.113810, 1, 1
12.113836, 1, 0
12.113862, 1, 1
12.113914, 1, 0
12.114148, 1, 1
12.114174, 1, 0
12.114200, 1, 1
12.114226, 1, 0
12.114252, 1, 1
12.114278, 1, 0
12.114330, 1, 1
12.114356, 1, 0
12.114382, 1, 1
12.163652, 1, 0
12.163678, 1, 1
12.163704, 1, 0
12.163886, 1, 1
12.163912, 1, 0
12.163964, 1, 1
12.163990, 1, 0
12.164016, 1, 1
12.164042, 1, 0
12.164146, 1, 1
12.164172, 1, 0
12.164328, 1, 1
12.164354, 1, 0
12.164406, 1, 1
12.164432, 1, 0
12.164666, 1, 1
12.164692, 1, 0
12.164744, 1, 1
12.164770, 1, 0
12.164926, 1, 1
12.164952, 1, 0
12.165056, 1, 1
12.165082, 1, 0
12.165134, 1, 1
12.165160, 1, 0
12.165186, 1, 1
12.165212, 1, 0
12.165264, 1, 1
12.165290, 1, 0
12.165446, 1, 1
12.165472, 1, 0
12.165498, 1, 1
12.165524, 1, 0
12.165602, 1, 1
12.165628, 1, 0
12.165680, 1, 1
12.165732, 1, 0
12.165758, 1, 1
12.165784, 1, 0
12.165966, 1, 1
12.165992, 1, 0
12.166226, 1, 1
12.166252, 1, 0
12.166356, 1, 1
12.166382, 1, 0
12.166486, 1, 1
12.214768, 1, 0
12.214794, 1, 1
12.214820, 1, 0
12.215002, 1, 1
12.215028, 1, 0
12.215106, 1, 1
12.215132, 1, 0
12.215158, 1, 1
12.215184, 1, 0
12.215262, 1, 1
12.215288, 1, 0
12.215340, 1, 1
12.215366, 1, 0
12.215444, 1, 1
12.215470, 1, 0
12.215522, 1, 1
12.215548, 1, 0
12.215782, 1, 1
12.216744, 1, 0
12.216770, 1, 1
12.216796, 1, 0
12.216822, 1, 1
12.216848, 1, 0
12.216926, 1, 1
12.216952, 1, 0
12.216978, 1, 1
12.217004, 1, 0
12.217056, 1, 1
12.217082, 1, 0
12.217134, 1, 1
12.217160, 1, 0
12.217238, 1, 1
12.217264, 1, 0
12.217342, 1, 1
12.217368, 1, 0
12.217446, 1, 1
12.217472, 1, 0
12.217498, 1, 1
12.217524, 1, 0
12.217550, 1, 1
12.217576, 1, 0
12.217628, 1, 1
12.217680, 1, 0
12.217758, 1, 1
12.217784, 1, 0
12.218018, 1, 1
12.218044, 1, 0
12.218096, 1, 1
12.218174, 1, 0
12.218200, 1, 1
12.218304, 1, 0
12.218538, 1, 1
12.218564, 1, 0
12.218798, 1, 1
12.218824, 1, 0
12.219058, 1, 1
12.219084, 1, 0
12.219136, 1, 1
12.219162, 1, 0
12.219318, 1, 1
12.219344, 1, 0
12.219396, 1, 1
12.219422, 1, 0
12.219448, 1, 1
12.219604, 1, 0
12.219630, 1, 1
12.219656, 1, 0
12.219734, 1, 1
12.219760, 1, 0
12.219812, 1, 1
12.219864, 1, 0
12.219890, 1, 1
12.219916, 1, 0
12.220098, 1, 1
12.220124, 1, 0
12.220254, 1, 1
12.220280, 1, 0
12.220332, 1, 1
12.220384, 1, 0
12.220410, 1, 1
12.220436, 1, 0
12.220618, 1, 1
12.220644, 1, 0
12.220878, 1, 1
12.220904, 1, 0
12.220930, 1, 1
12.221008, 1, 0
12.221034, 1, 1
17.093181, 0, 1
17.093207, 1, 1
17.093233, 0, 1
17.093416, 1, 1
17.093442, 0, 1
17.093468, 1, 1
17.093494, 0, 1
17.093520, 1, 1
17.093546, 0, 1
17.093676, 1, 1
17.093702, 0, 1
17.093728, 1, 1
17.093754, 0, 1
17.093859, 1, 1
17.093885, 0, 1
17.093937, 1, 1
17.093963, 0, 1
17.094197, 1, 1
17.094223, 0, 1
17.094275, 1, 1
17.094302, 0, 1
17.094380, 1, 1
17.094406, 0, 1
17.094458, 1, 1
17.094484, 0, 1
17.094588, 1, 1
17.094614, 0, 1
17.094666, 1, 1
17.094692, 0, 1
17.094718, 1, 1
17.293176, 0, 1
17.293411, 1, 1
17.293437, 0, 1
17.293671, 1, 1
17.293697, 0, 1
17.293932, 1, 1
17.293958, 0, 1
17.294192, 1, 1
17.294218, 0, 1
17.294453, 1, 1
17.294479, 0, 1
17.294714, 1, 1
17.294740, 0, 1
17.294974, 1, 1
17.295000, 0, 1
17.295235, 1, 1
17.295261, 0, 1
17.295495, 1, 1
17.295521, 0, 1
17.295756, 1, 1
17.295782, 0, 1
17.296016, 1, 1
17.296042, 0, 1
17.296277, 1, 1
17.296303, 0, 1
17.296537, 1, 1
17.296563, 0, 1
17.296798, 1, 1
17.296824, 0, 1
17.297058, 1, 1
17.297085, 0, 1
17.297319, 1, 1
17.314307, 0, 1
17.314541, 1, 1
17.314567, 0, 1
17.314802, 1, 1
17.314828, 0, 1
17.315062, 1, 1
17.315088, 0, 1
17.315323, 1, 1
17.315349, 0, 1
17.315583, 1, 1
17.315609, 0, 1
17.315844, 1, 1
17.315870, 0, 1
17.316104, 1, 1
17.316130, 0, 1
17.316365, 1, 1
17.316391, 0, 1
17.316625, 1, 1
17.316652, 0, 1
17.316886, 1, 1
17.316912, 0, 1
17.317147, 1, 1
17.317173, 0, 1
17.317407, 1, 1
17.317433, 0, 1
17.317668, 1, 1
17.317694, 0, 1
17.317928, 1, 1
17.317954, 0, 1
17.318189, 1, 1
17.318215, 0, 1
17.318449, 1, 1
17.335307, 0, 1
17.335541, 1, 1
17.335567, 0, 1
17.335802, 1, 1
17.335828, 0, 1
17.336062, 1, 1
17.336088, 0, 1
17.336323, 1, 1
17.336349, 0, 1
17.336583, 1, 1
17.336609, 0, 1
17.336844, 1, 1
17.336870, 0, 1
17.337104, 1, 1
17.337130, 0, 1
17.337365, 1, 1
17.337391, 0, 1
17.337625, 1, 1
17.337652, 0, 1
17.337886, 1, 1
17.337912, 0, 1
17.338147, 1, 1
17.338173, 0, 1
17.338407, 1, 1
17.338433, 0, 1
17.338668, 1, 1
17.338694, 0, 1
17.338928, 1, 1
17.338954, 0, 1
17.339189, 1, 1
17.339215, 0, 1
17.339449, 1, 1
17.356176, 0, 1
17.356411, 1, 1
17.356437, 0, 1
17.356671, 1, 1
17.356697, 0, 1
17.356932, 1, 1
17.356958, 0, 1
17.357192, 1, 1
17.357219, 0, 1
17.357453, 1, 1
17.357479, 0, 1
17.357714, 1, 1
17.357740, 0, 1
17.357974, 1, 1
17.358000, 0, 1
17.358235, 1, 1
17.358261, 0, 1
17.358495, 1, 1
17.358521, 0, 1
17.358756, 1, 1
17.358782, 0, 1
17.359016, 1, 1
17.359042, 0, 1
17.359277, 1, 1
17.359303, 0, 1
17.359537, 1, 1
17.359563, 0, 1
17.359798, 1, 1
17.359824, 0, 1
17.360058, 1, 1
17.360085, 0, 1
17.360319, 1, 1
17.377202, 0, 1
17.377437, 1, 1
17.377463, 0, 1
17.377697, 1, 1
17.377724, 0, 1
17.377958, 1, 1
17.377984, 0, 1
17.378219, 1, 1
17.378245, 0, 1
17.378479, 1, 1
17.378505, 0, 1
17.378740, 1, 1
17.378766, 0, 1
17.379000, 1, 1
17.379026, 0, 1
17.379261, 1, 1
17.379287, 0, 1
17.379521, 1, 1
17.379547, 0, 1
17.379782, 1, 1
17.379808, 0, 1
17.380042, 1, 1
17.380068, 0, 1
17.380303, 1, 1
17.380329, 0, 1
17.380563, 1, 1
17.380590, 0, 1
17.380824, 1, 1
17.380850, 0, 1
17.381085, 1, 1
17.381111, 0, 1
17.381345, 1, 1
17.398281, 0, 1
17.398515, 1, 1
17.398541, 0, 1
17.398776, 1, 1
17.398802, 0, 1
17.399036, 1, 1
17.399062, 0, 1
17.399297, 1, 1
17.399323, 0, 1
17.399557, 1, 1
17.399583, 0, 1
17.399818, 1, 1
17.399844, 0, 1
17.400078, 1, 1
17.400104, 0, 1
17.400339, 1, 1
17.400365, 0, 1
17.400599, 1, 1
17.400626, 0, 1
17.400860, 1, 1
17.400886, 0, 1
17.401121, 1, 1
17.401147, 0, 1
17.401381, 1, 1
17.401407, 0, 1
17.401642, 1, 1
17.401668, 0, 1
17.401902, 1, 1
17.401928, 0, 1
17.402163, 1, 1
17.402189, 0, 1
17.402423, 1, 1
17.419307, 0, 1
17.419541, 1, 1
17.419567, 0, 1
17.419802, 1, 1
17.419828, 0, 1
17.420062, 1, 1
17.420088, 0, 1
17.420323, 1, 1
17.420349, 0, 1
17.420583, 1, 1
17.420609, 0, 1
17.420844, 1, 1
17.420870, 0, 1
17.421104, 1, 1
17.421131, 0, 1
17.421365, 1, 1
17.421391, 0, 1
17.421626, 1, 1
17.421652, 0, 1
17.421886, 1, 1
17.421912, 0, 1
17.422147, 1, 1
17.422173, 0, 1
17.422407, 1, 1
17.422433, 0, 1
17.422668, 1, 1
17.422694, 0, 1
17.422928, 1, 1
17.422954, 0, 1
17.423189, 1, 1
17.423215, 0, 1
17.423449, 1, 1
17.440202, 0, 1
17.440437, 1, 1
17.440463, 0, 1
17.440698, 1, 1
17.440724, 0, 1
17.440958, 1, 1
17.440984, 0, 1
17.441219, 1, 1
17.441245, 0, 1
17.441479, 1, 1
17.441505, 0, 1
17.441740, 1, 1
17.441766, 0, 1
17.442000, 1, 1
17.442026, 0, 1
17.442261, 1, 1
17.442287, 0, 1
17.442521, 1, 1
17.442547, 0, 1
17.442782, 1, 1
17.442808, 0, 1
17.443042, 1, 1
17.443068, 0, 1
17.443303, 1, 1
17.443329, 0, 1
17.443564, 1, 1
17.443590, 0, 1
17.443824, 1, 1
17.443850, 0, 1
17.444085, 1, 1
17.444111, 0, 1
17.444345, 1, 1
17.461229, 0, 1
17.461463, 1, 1
17.461489, 0, 1
17.461724, 1, 1
17.461750, 0, 1
17.461984, 1, 1
17.462010, 0, 1
17.462245, 1, 1
17.462271, 0, 1
17.462505, 1, 1
17.462531, 0, 1
17.462766, 1, 1
17.462792, 0, 1
17.463026, 1, 1
17.463052, 0, 1
17.463287, 1, 1
17.463313, 0, 1
17.463547, 1, 1
17.463573, 0, 1
17.463808, 1, 1
17.463834, 0, 1
17.464068, 1, 1
17.464095, 0, 1
17.464329, 1, 1
17.464355, 0, 1
17.464590, 1, 1
17.464616, 0, 1
17.464850, 1, 1
17.464876, 0, 1
17.465111, 1, 1
17.465137, 0, 1
17.465371, 1, 1
17.482307, 0, 1
17.482541, 1, 1
17.482567, 0, 1
17.482802, 1, 1
17.482828, 0, 1
17.483062, 1, 1
17.483088, 0, 1
17.483323, 1, 1
17.483349, 0, 1
17.483583, 1, 1
17.483609, 0, 1
17.483844, 1, 1
17.483870, 0, 1
17.484104, 1, 1
17.484131, 0, 1
17.484365, 1, 1
17.484391, 0, 1
17.484626, 1, 1
17.484652, 0, 1
17.484886, 1, 1
17.484912, 0, 1
17.485147, 1, 1
17.485173, 0, 1
17.485407, 1, 1
17.485433, 0, 1
17.485668, 1, 1
17.485694, 0, 1
17.485928, 1, 1
17.485954, 0, 1
17.486189, 1, 1
17.486215, 0, 1
17.486449, 1, 1
17.503203, 0, 1
17.503437, 1, 1
17.503463, 0, 1
17.503698, 1, 1
17.503724, 0, 1
17.503958, 1, 1
17.503984, 0, 1
17.504219, 1, 1
17.504245, 0, 1
17.504479, 1, 1
17.504505, 0, 1
17.504740, 1, 1
17.504766, 0, 1
17.505000, 1, 1
17.505026, 0, 1
17.505261, 1, 1
17.505287, 0, 1
17.505521, 1, 1
17.505547, 0, 1
17.505782, 1, 1
17.505808, 0, 1
17.506042, 1, 1
17.506069, 0, 1
17.506303, 1, 1
17.506329, 0, 1
17.506564, 1, 1
17.506590, 0, 1
17.506824, 1, 1
17.506850, 0, 1
17.507085, 1, 1
17.507111, 0, 1
17.507345, 1, 1
17.524307, 0, 1
17.524541, 1, 1
17.524567, 0, 1
17.524802, 1, 1
17.524828, 0, 1
17.525062, 1, 1
17.525088, 0, 1
17.525323, 1, 1
17.525349, 0, 1
17.525583, 1, 1
17.525609, 0, 1
17.525844, 1, 1
17.525870, 0, 1
17.526105, 1, 1
17.526131, 0, 1
17.526365, 1, 1
17.526391, 0, 1
17.526626, 1, 1
17.526652, 0, 1
17.526886, 1, 1
17.526912, 0, 1
17.527147, 1, 1
17.527173, 0, 1
17.527407, 1, 1
17.527433, 0, 1
17.527668, 1, 1
17.527694, 0, 1
17.527928, 1, 1
17.527954, 0, 1
17.528189, 1, 1
17.528215, 0, 1
17.528449, 1, 1
17.545203, 0, 1
17.545437, 1, 1
17.545463, 0, 1
17.545698, 1, 1
17.545724, 0, 1
17.545958, 1, 1
17.545984, 0, 1
17.546219, 1, 1
17.546245, 0, 1
17.546479, 1, 1
17.546505, 0, 1
17.546740, 1, 1
17.546766, 0, 1
17.547000, 1, 1
17.547026, 0, 1
17.547261, 1, 1
17.547287, 0, 1
17.547521, 1, 1
17.547547, 0, 1
17.547782, 1, 1
17.547808, 0, 1
17.548043, 1, 1
17.548069, 0, 1
17.548303, 1, 1
17.548329, 0, 1
17.548564, 1, 1
17.548590, 0, 1
17.548824, 1, 1
17.548850, 0, 1
17.549085, 1, 1
17.549111, 0, 1
17.549345, 1, 1
17.566203, 0, 1
17.566437, 1, 1
17.566463, 0, 1
17.566698, 1, 1
17.566724, 0, 1
17.566958, 1, 1
17.566984, 0, 1
17.567219, 1, 1
17.567245, 0, 1
17.567479, 1, 1
17.567505, 0, 1
17.567740, 1, 1
17.567766, 0, 1
17.568000, 1, 1
17.568026, 0, 1
17.568261, 1, 1
17.568287, 0, 1
17.568521, 1, 1
17.568547, 0, 1
17.568782, 1, 1
17.568808, 0, 1
17.569043, 1, 1
17.569069, 0, 1
17.569303, 1, 1
17.569329, 0, 1
17.569564, 1, 1
17.569590, 0, 1
17.569824, 1, 1
17.569850, 0, 1
17.570085, 1, 1
17.570111, 0, 1
17.570345, 1, 1
17.587307, 0, 1
17.587541, 1, 1
17.587567, 0, 1
17.587802, 1, 1
17.587828, 0, 1
17.588062, 1, 1
17.588088, 0, 1
17.588323, 1, 1
17.588349, 0, 1
17.588583, 1, 1
17.588610, 0, 1
17.588844, 1, 1
17.588870, 0, 1
17.589105, 1, 1
17.589131, 0, 1
17.589365, 1, 1
17.589391, 0, 1
17.589626, 1, 1
17.589652, 0, 1
17.589886, 1, 1
17.589912, 0, 1
17.590147, 1, 1
17.590173, 0, 1
17.590407, 1, 1
17.590433, 0, 1
17.590668, 1, 1
17.590694, 0, 1
17.590928, 1, 1
17.590954, 0, 1
17.591189, 1, 1
17.591215, 0, 1
17.591449, 1, 1
17.608203, 0, 1
17.608437, 1, 1
17.608463, 0, 1
17.608698, 1, 1
17.608724, 0, 1
17.608958, 1, 1
17.608984, 0, 1
17.609219, 1, 1
17.609245, 0, 1
17.609479, 1, 1
17.609505, 0, 1
17.609740, 1, 1
17.609766, 0, 1
17.610000, 1, 1
17.610026, 0, 1
17.610261, 1, 1
17.610287, 0, 1
17.610521, 1, 1
17.610547, 0, 1
17.610782, 1, 1
17.610808, 0, 1
17.611043, 1, 1
17.611069, 0, 1
17.611303, 1, 1
17.611329, 0, 1
17.611564, 1, 1
17.611590, 0, 1
17.611824, 1, 1
17.611850, 0, 1
17.612085, 1, 1
17.612111, 0, 1
17.612345, 1, 1
17.629333, 0, 1
17.629567, 1, 1
17.629593, 0, 1
17.629828, 1, 1
17.629854, 0, 1
17.630088, 1, 1
17.630115, 0, 1
17.630349, 1, 1
17.630375, 0, 1
17.630610, 1, 1
17.630636, 0, 1
17.630870, 1, 1
17.630896, 0, 1
17.631131, 1, 1
17.631157, 0, 1
17.631391, 1, 1
17.631417, 0, 1
17.631652, 1, 1
17.631678, 0, 1
17.631912, 1, 1
17.631938, 0, 1
17.632173, 1, 1
17.632199, 0, 1
17.632433, 1, 1
17.632459, 0, 1
17.632694, 1, 1
17.632720, 0, 1
17.632954, 1, 1
17.632981, 0, 1
17.633215, 1, 1
17.633241, 0, 1
17.633476, 1, 1
17.730321, 0, 1
17.730347, 1, 1
17.730373, 0, 1
17.730555, 1, 1
17.730581, 0, 1
17.730607, 1, 1
17.730633, 0, 1
17.730659, 1, 1
17.730685, 0, 1
17.730816, 1, 1
17.730842, 0, 1
17.730868, 1, 1
17.730894, 0, 1
17.730998, 1, 1
17.731024, 0, 1
17.731076, 1, 1
17.731102, 0, 1
17.731337, 1, 1
17.731363, 0, 1
17.731415, 1, 1
17.731441, 0, 1
17.731519, 1, 1
17.731545, 0, 1
17.731597, 1, 1
17.731623, 0, 1
17.731727, 1, 1
17.731754, 0, 1
17.731806, 1, 1
17.731832, 0, 1
17.731858, 1, 1
17.774997, 1, 0
17.775023, 1, 1
17.775049, 1, 0
17.775231, 1, 1
17.775257, 1, 0
17.775335, 1, 1
17.775361, 1, 0
17.775491, 1, 1
17.775517, 1, 0
17.775543, 1, 1
17.775569, 1, 0
17.775673, 1, 1
17.775699, 1, 0
17.775725, 1, 1
17.775777, 1, 0
17.776011, 1, 1
17.776037, 1, 0
17.776063, 1, 1
17.776089, 1, 0
17.776115, 1, 1
17.776141, 1, 0
17.776193, 1, 1
17.776219, 1, 0
17.776245, 1, 1
17.825255, 1, 0
17.825281, 1, 1
17.825307, 1, 0
17.825489, 1, 1
17.825515, 1, 0
17.825567, 1, 1
17.825593, 1, 0
17.825619, 1, 1
17.825645, 1, 0
17.825749, 1, 1
17.825775, 1, 0
17.825931, 1, 1
17.825957, 1, 0
17.826009, 1, 1
17.826035, 1, 0
17.826269, 1, 1
17.826295, 1, 0
17.826347, 1, 1
17.826373, 1, 0
17.826529, 1, 1
17.826555, 1, 0
17.826659, 1, 1
17.826685, 1, 0
17.826737, 1, 1
17.826763, 1, 0
17.826789, 1, 1
17.826815, 1, 0
17.826867, 1, 1
17.826893, 1, 0
17.827049, 1, 1
17.827075, 1, 0
17.827101, 1, 1
17.827127, 1, 0
17.827205, 1, 1
17.827231, 1, 0
17.827283, 1, 1
17.827335, 1, 0
17.827361, 1, 1
17.827387, 1, 0
17.827569, 1, 1
17.827595, 1, 0
17.827829, 1, 1
17.827855, 1, 0
17.827959, 1, 1
17.827985, 1, 0
17.828089, 1, 1
17.875279, 1, 0
17.875305, 1, 1
17.875331, 1, 0
17.875513, 1, 1
17.875539, 1, 0
17.875617, 1, 1
17.875643, 1, 0
17.875669, 1, 1
17.875695, 1, 0
17.875773, 1, 1
17.875799, 1, 0
17.875851, 1, 1
17.875877, 1, 0
17.875955, 1, 1
17.875981, 1, 0
17.876033, 1, 1
17.876059, 1, 0
17.876293, 1, 1
17.876319, 1, 0
17.876345, 1, 1
17.876371, 1, 0
17.876397, 1, 1
17.876423, 1, 0
17.876501, 1, 1
17.876527, 1, 0
17.876553, 1, 1
17.876579, 1, 0
17.876631, 1, 1
17.876657, 1, 0
17.876709, 1, 1
17.876735, 1, 0
17.876813, 1, 1
