Time[s], Channel 0, Channel 1
0.000000, 1, 1
2.575888, 0, 1
2.575914, 1, 1
2.575940, 0, 1
2.576123, 1, 1
2.576149, 0, 1
2.576175, 1, 1
2.576201, 0, 1
2.576227, 1, 1
2.576253, 0, 1
2.576383, 1, 1
2.576409, 0, 1
2.576436, 1, 1
2.576462, 0, 1
2.576566, 1, 1
2.576592, 0, 1
2.576644, 1, 1
2.576670, 0, 1
2.576904, 1, 1
2.576931, 0, 1
2.576983, 1, 1
2.577009, 0, 1
2.577087, 1, 1
2.577113, 0, 1
2.577165, 1, 1
2.577191, 0, 1
2.577295, 1, 1
2.577321, 0, 1
2.577373, 1, 1
2.577400, 0, 1
2.577426, 1, 1
2.775910, 0, 1
2.776144, 1, 1
2.776170, 0, 1
2.776405, 1, 1
2.776431, 0, 1
2.776665, 1, 1
2.776691, 0, 1
2.776926, 1, 1
2.776952, 0, 1
2.777186, 1, 1
2.777212, 0, 1
2.777447, 1, 1
2.777473, 0, 1
2.777707, 1, 1
2.777733, 0, 1
2.777968, 1, 1
2.777994, 0, 1
2.778228, 1, 1
2.778254, 0, 1
2.778489, 1, 1
2.778515, 0, 1
2.778750, 1, 1
2.778776, 0, 1
2.779010, 1, 1
2.779036, 0, 1
2.779271, 1, 1
2.779297, 0, 1
2.779531, 1, 1
2.779557, 0, 1
2.779792, 1, 1
2.779818, 0, 1
2.780052, 1, 1
2.797014, 0, 1
2.797248, 1, 1
2.797274, 0, 1
2.797509, 1, 1
2.797535, 0, 1
2.797769, 1, 1
2.797795, 0, 1
2.798030, 1, 1
2.798056, 0, 1
2.798290, 1, 1
2.798317, 0, 1
2.798551, 1, 1
2.798577, 0, 1
2.798812, 1, 1
2.798838, 0, 1
2.799072, 1, 1
2.799098, 0, 1
2.799333, 1, 1
2.799359, 0, 1
2.799593, 1, 1
2.799619, 0, 1
2.799854, 1, 1
2.799880, 0, 1
2.800114, 1, 1
2.800140, 0, 1
2.800375, 1, 1
2.800401, 0, 1
2.800635, 1, 1
2.800661, 0, 1
2.800896, 1, 1
2.800922, 0, 1
2.801156, 1, 1
2.818040, 0, 1
2.818274, 1, 1
2.818300, 0, 1
2.818535, 1, 1
2.818561, 0, 1
2.818795, 1, 1
2.818821, 0, 1
2.819056, 1, 1
2.819082, 0, 1
2.819317, 1, 1
2.819343, 0, 1
2.819577, 1, 1
2.819603, 0, 1
2.819838, 1, 1
2.819864, 0, 1
2.820098, 1, 1
2.820124, 0, 1
2.820359, 1, 1
2.820385, 0, 1
2.820619, 1, 1
2.820645, 0, 1
2.820880, 1, 1
2.820906, 0, 1
2.821140, 1, 1
2.821166, 0, 1
2.821401, 1, 1
2.821427, 0, 1
2.821661, 1, 1
2.821688, 0, 1
2.821922, 1, 1
2.821948, 0, 1
2.822183, 1, 1
2.838910, 0, 1
2.839144, 1, 1
2.839170, 0, 1
2.839405, 1, 1
2.839431, 0, 1
2.839665, 1, 1
2.839691, 0, 1
2.839926, 1, 1
2.839952, 0, 1
2.840186, 1, 1
2.840212, 0, 1
2.840447, 1, 1
2.840473, 0, 1
2.840707, 1, 1
2.840733, 0, 1
2.840968, 1, 1
2.840994, 0, 1
2.841228, 1, 1
2.841255, 0, 1
2.841489, 1, 1
2.841515, 0, 1
2.841750, 1, 1
2.841776, 0, 1
2.842010, 1, 1
2.842036, 0, 1
2.842271, 1, 1
2.842297, 0, 1
2.842531, 1, 1
2.842557, 0, 1
2.842792, 1, 1
2.842818, 0, 1
2.843052, 1, 1
2.860040, 0, 1
2.860274, 1, 1
2.860300, 0, 1
2.860535, 1, 1
2.860561, 0, 1
2.860795, 1, 1
2.860822, 0, 1
2.861056, 1, 1
2.861082, 0, 1
2.861317, 1, 1
2.861343, 0, 1
2.861577, 1, 1
2.861603, 0, 1
2.861838, 1, 1
2.861864, 0, 1
2.862098, 1, 1
2.862124, 0, 1
2.862359, 1, 1
2.862385, 0, 1
2.862619, 1, 1
2.862645, 0, 1
2.862880, 1, 1
2.862906, 0, 1
2.863140, 1, 1
2.863166, 0, 1
2.863401, 1, 1
2.863427, 0, 1
2.863661, 1, 1
2.863688, 0, 1
2.863922, 1, 1
2.863948, 0, 1
2.864183, 1, 1
2.880910, 0, 1
2.881144, 1, 1
2.881170, 0, 1
2.881405, 1, 1
2.881431, 0, 1
2.881665, 1, 1
2.881691, 0, 1
2.881926, 1, 1
2.881952, 0, 1
2.882186, 1, 1
2.882212, 0, 1
2.882447, 1, 1
2.882473, 0, 1
2.882707, 1, 1
2.882733, 0, 1
2.882968, 1, 1
2.882994, 0, 1
2.883229, 1, 1
2.883255, 0, 1
2.883489, 1, 1
2.883515, 0, 1
2.883750, 1, 1
2.883776, 0, 1
2.884010, 1, 1
2.884036, 0, 1
2.884271, 1, 1
2.884297, 0, 1
2.884531, 1, 1
2.884557, 0, 1
2.884792, 1, 1
2.884818, 0, 1
2.885052, 1, 1
2.901910, 0, 1
2.902144, 1, 1
2.902170, 0, 1
2.902405, 1, 1
2.902431, 0, 1
2.902665, 1, 1
2.902691, 0, 1
2.902926, 1, 1
2.902952, 0, 1
2.903186, 1, 1
2.903212, 0, 1
2.903447, 1, 1
2.903473, 0, 1
2.903707, 1, 1
2.903733, 0, 1
2.903968, 1, 1
2.903994, 0, 1
2.904229, 1, 1
2.904255, 0, 1
2.904489, 1, 1
2.904515, 0, 1
2.904750, 1, 1
2.904776, 0, 1
2.905010, 1, 1
2.905036, 0, 1
2.905271, 1, 1
2.905297, 0, 1
2.905531, 1, 1
2.905557, 0, 1
2.905792, 1, 1
2.905818, 0, 1
2.906052, 1, 1
2.923040, 0, 1
2.923274, 1, 1
2.923300, 0, 1
2.923535, 1, 1
2.923561, 0, 1
2.923796, 1, 1
2.923822, 0, 1
2.924056, 1, 1
2.924082, 0, 1
2.924317, 1, 1
2.924343, 0, 1
2.924577, 1, 1
2.924603, 0, 1
2.924838, 1, 1
2.924864, 0, 1
2.925098, 1, 1
2.925124, 0, 1
2.925359, 1, 1
2.925385, 0, 1
2.925619, 1, 1
2.925645, 0, 1
2.925880, 1, 1
2.925906, 0, 1
2.926140, 1, 1
2.926166, 0, 1
2.926401, 1, 1
2.926427, 0, 1
2.926662, 1, 1
2.926688, 0, 1
2.926922, 1, 1
2.926948, 0, 1
2.927183, 1, 1
2.943910, 0, 1
2.944144, 1, 1
2.944170, 0, 1
2.944405, 1, 1
2.944431, 0, 1
2.944665, 1, 1
2.944691, 0, 1
2.944926, 1, 1
2.944952, 0, 1
2.945186, 1, 1
2.945212, 0, 1
2.945447, 1, 1
2.945473, 0, 1
2.945707, 1, 1
2.945733, 0, 1
2.945968, 1, 1
2.945994, 0, 1
2.946229, 1, 1
2.946255, 0, 1
2.946489, 1, 1
2.946515, 0, 1
2.946750, 1, 1
2.946776, 0, 1
2.947010, 1, 1
2.947036, 0, 1
2.947271, 1, 1
2.947297, 0, 1
2.947531, 1, 1
2.947557, 0, 1
2.947792, 1, 1
2.947818, 0, 1
2.948052, 1, 1
2.965040, 0, 1
2.965274, 1, 1
2.965301, 0, 1
2.965535, 1, 1
2.965561, 0, 1
2.965796, 1, 1
2.965822, 0, 1
2.966056, 1, 1
2.966082, 0, 1
2.966317, 1, 1
2.966343, 0, 1
2.966577, 1, 1
2.966603, 0, 1
2.966838, 1, 1
2.966864, 0, 1
2.967098, 1, 1
2.967124, 0, 1
2.967359, 1, 1
2.967385, 0, 1
2.967619, 1, 1
2.967645, 0, 1
2.967880, 1, 1
2.967906, 0, 1
2.968140, 1, 1
2.968167, 0, 1
2.968401, 1, 1
2.968427, 0, 1
2.968662, 1, 1
2.968688, 0, 1
2.968922, 1, 1
2.968948, 0, 1
2.969183, 1, 1
2.985936, 0, 1
2.986170, 1, 1
2.986196, 0, 1
2.986431, 1, 1
2.986457, 0, 1
2.986691, 1, 1
2.986717, 0, 1
2.986952, 1, 1
2.986978, 0, 1
2.987212, 1, 1
2.987238, 0, 1
2.987473, 1, 1
2.987499, 0, 1
2.987734, 1, 1
2.987760, 0, 1
2.987994, 1, 1
2.988020, 0, 1
2.988255, 1, 1
2.988281, 0, 1
2.988515, 1, 1
2.988541, 0, 1
2.988776, 1, 1
2.988802, 0, 1
2.989036, 1, 1
2.989062, 0, 1
2.989297, 1, 1
2.989323, 0, 1
2.989557, 1, 1
2.989583, 0, 1
2.989818, 1, 1
2.989844, 0, 1
2.990078, 1, 1
3.006962, 0, 1
3.007196, 1, 1
3.007222, 0, 1
3.007457, 1, 1
3.007483, 0, 1
3.007717, 1, 1
3.007743, 0, 1
3.007978, 1, 1
3.008004, 0, 1
3.008238, 1, 1
3.008265, 0, 1
3.008499, 1, 1
3.008525, 0, 1
3.008760, 1, 1
3.008786, 0, 1
3.009020, 1, 1
3.009046, 0, 1
3.009281, 1, 1
3.009307, 0, 1
3.009541, 1, 1
3.009567, 0, 1
3.009802, 1, 1
3.009828, 0, 1
3.010062, 1, 1
3.010088, 0, 1
3.010323, 1, 1
3.010349, 0, 1
3.010583, 1, 1
3.010609, 0, 1
3.010844, 1, 1
3.010870, 0, 1
3.011104, 1, 1
3.028040, 0, 1
3.028274, 1, 1
3.028301, 0, 1
3.028535, 1, 1
3.028561, 0, 1
3.028796, 1, 1
3.028822, 0, 1
3.029056, 1, 1
3.029082, 0, 1
3.029317, 1, 1
3.029343, 0, 1
3.029577, 1, 1
3.029603, 0, 1
3.029838, 1, 1
3.029864, 0, 1
3.030098, 1, 1
3.030124, 0, 1
3.030359, 1, 1
3.030385, 0, 1
3.030619, 1, 1
3.030645, 0, 1
3.030880, 1, 1
3.030906, 0, 1
3.031141, 1, 1
3.031167, 0, 1
3.031401, 1, 1
3.031427, 0, 1
3.031662, 1, 1
3.031688, 0, 1
3.031922, 1, 1
3.031948, 0, 1
3.032183, 1, 1
3.048936, 0, 1
3.049170, 1, 1
3.049196, 0, 1
3.049431, 1, 1
3.049457, 0, 1
3.049691, 1, 1
3.049717, 0, 1
3.049952, 1, 1
3.049978, 0, 1
3.050212, 1, 1
3.050239, 0, 1
3.050473, 1, 1
3.050499, 0, 1
3.050734, 1, 1
3.050760, 0, 1
3.050994, 1, 1
3.051020, 0, 1
3.051255, 1, 1
3.051281, 0, 1
3.051515, 1, 1
3.051541, 0, 1
3.051776, 1, 1
3.051802, 0, 1
3.052036, 1, 1
3.052062, 0, 1
3.052297, 1, 1
3.052323, 0, 1
3.052557, 1, 1
3.052583, 0, 1
3.052818, 1, 1
3.052844, 0, 1
3.053078, 1, 1
3.070040, 0, 1
3.070275, 1, 1
3.070301, 0, 1
3.070535, 1, 1
3.070561, 0, 1
3.070796, 1, 1
3.070822, 0, 1
3.071056, 1, 1
3.071082, 0, 1
3.071317, 1, 1
3.071343, 0, 1
3.071577, 1, 1
3.071603, 0, 1
3.071838, 1, 1
3.071864, 0, 1
3.072098, 1, 1
3.072124, 0, 1
3.072359, 1, 1
3.072385, 0, 1
3.072619, 1, 1
3.072645, 0, 1
3.072880, 1, 1
3.072906, 0, 1
3.073141, 1, 1
3.073167, 0, 1
3.073401, 1, 1
3.073427, 0, 1
3.073662, 1, 1
3.073688, 0, 1
3.073922, 1, 1
3.073948, 0, 1
3.074183, 1, 1
3.090936, 0, 1
3.091170, 1, 1
3.091196, 0, 1
3.091431, 1, 1
3.091457, 0, 1
3.091691, 1, 1
3.091717, 0, 1
3.091952, 1, 1
3.091978, 0, 1
3.092212, 1, 1
3.092239, 0, 1
3.092473, 1, 1
3.092499, 0, 1
3.092734, 1, 1
3.092760, 0, 1
3.092994, 1, 1
3.093020, 0, 1
3.093255, 1, 1
3.093281, 0, 1
3.093515, 1, 1
3.093541, 0, 1
3.093776, 1, 1
3.093802, 0, 1
3.094036, 1, 1
3.094062, 0, 1
3.094297, 1, 1
3.094323, 0, 1
3.094557, 1, 1
3.094583, 0, 1
3.094818, 1, 1
3.094844, 0, 1
3.095078, 1, 1
3.111936, 0, 1
3.112170, 1, 1
3.112196, 0, 1
3.112431, 1, 1
3.112457, 0, 1
3.112691, 1, 1
3.112717, 0, 1
3.112952, 1, 1
3.112978, 0, 1
3.113213, 1, 1
3.113239, 0, 1
3.113473, 1, 1
3.113499, 0, 1
3.113734, 1, 1
3.113760, 0, 1
3.113994, 1, 1
3.114020, 0, 1
3.114255, 1, 1
3.114281, 0, 1
3.114515, 1, 1
3.114541, 0, 1
3.114776, 1, 1
3.114802, 0, 1
3.115036, 1, 1
3.115062, 0, 1
3.115297, 1, 1
3.115323, 0, 1
3.115557, 1, 1
3.115583, 0, 1
3.115818, 1, 1
3.115844, 0, 1
3.116079, 1, 1
3.212950, 0, 1
3.212976, 1, 1
3.213002, 0, 1
3.213184, 1, 1
3.213210, 0, 1
3.213236, 1, 1
3.213262, 0, 1
3.213288, 1, 1
3.213314, 0, 1
3.213445, 1, 1
3.213471, 0, 1
3.213497, 1, 1
3.213523, 0, 1
3.213627, 1, 1
3.213653, 0, 1
3.213705, 1, 1
3.213731, 0, 1
3.213966, 1, 1
3.213992, 0, 1
3.214044, 1, 1
3.214070, 0, 1
3.214148, 1, 1
3.214174, 0, 1
3.214226, 1, 1
3.214252, 0, 1
3.214356, 1, 1
3.214383, 0, 1
3.214435, 1, 1
3.214461, 0, 1
3.214487, 1, 1
3.248770, 1, 0
3.248796, 1, 1
3.248822, 1, 0
3.249004, 1, 1
3.249030, 1, 0
3.249108, 1, 1
3.249134, 1, 0
3.249264, 1, 1
3.249290, 1, 0
3.249316, 1, 1
3.249342, 1, 0
3.249446, 1, 1
3.249472, 1, 0
3.249498, 1, 1
3.249550, 1, 0
3.249784, 1, 1
3.249810, 1, 0
3.249836, 1, 1
3.249862, 1, 0
3.249888, 1, 1
3.249914, 1, 0
3.249966, 1, 1
3.249992, 1, 0
3.250018, 1, 1
3.298925, 1, 0
3.298951, 1, 1
3.298977, 1, 0
3.299159, 1, 1
3.299185, 1, 0
3.299237, 1, 1
3.299263, 1, 0
3.299289, 1, 1
3.299315, 1, 0
3.299419, 1, 1
3.299445, 1, 0
3.299601, 1, 1
3.299627, 1, 0
3.299679, 1, 1
3.299705, 1, 0
3.299939, 1, 1
3.299965, 1, 0
3.300095, 1, 1
3.300121, 1, 0
3.300199, 1, 1
3.300225, 1, 0
3.300329, 1, 1
3.300355, 1, 0
3.300433, 1, 1
3.300485, 1, 0
3.300537, 1, 1
3.300563, 1, 0
3.300719, 1, 1
3.300745, 1, 0
3.300771, 1, 1
3.301005, 1, 0
3.301031, 1, 1
3.301265, 1, 0
3.301499, 1, 1
3.301525, 1, 0
3.301577, 1, 1
3.301603, 1, 0
3.301707, 1, 1
3.349443, 1, 0
3.349469, 1, 1
3.349495, 1, 0
3.349677, 1, 1
3.349703, 1, 0
3.349781, 1, 1
3.349807, 1, 0
3.349833, 1, 1
3.349859, 1, 0
3.349937, 1, 1
3.349963, 1, 0
3.350015, 1, 1
3.350041, 1, 0
3.350119, 1, 1
3.350145, 1, 0
3.350197, 1, 1
3.350223, 1, 0
3.350457, 1, 1
3.350483, 1, 0
3.350509, 1, 1
3.350535, 1, 0
3.350561, 1, 1
3.350587, 1, 0
3.350665, 1, 1
3.350691, 1, 0
3.350717, 1, 1
3.350743, 1, 0
3.350795, 1, 1
3.350821, 1, 0
3.350873, 1, 1
3.350899, 1, 0
3.350977, 1, 1
3.351003, 1, 0
3.351081, 1, 1
3.351107, 1, 0
3.351185, 1, 1
3.351211, 1, 0
3.351237, 1, 1
3.351263, 1, 0
3.351289, 1, 1
3.351315, 1, 0
3.351367, 1, 1
3.351419, 1, 0
3.351497, 1, 1
3.351523, 1, 0
3.351757, 1, 1
3.351783, 1, 0
3.351809, 1, 1
3.351913, 1, 0
3.351939, 1, 1
3.352043, 1, 0
3.352277, 1, 1
3.352303, 1, 0
3.352537, 1, 1
3.352563, 1, 0
3.352797, 1, 1
3.352823, 1, 0
3.352875, 1, 1
3.352901, 1, 0
3.353057, 1, 1
3.353083, 1, 0
3.353135, 1, 1
3.353161, 1, 0
3.353187, 1, 1
3.353343, 1, 0
3.353369, 1, 1
3.353603, 1, 0
3.353629, 1, 1
3.353863, 1, 0
3.353993, 1, 1
3.354019, 1, 0
3.354071, 1, 1
3.354123, 1, 0
3.354149, 1, 1
3.354175, 1, 0
3.354357, 1, 1
3.354383, 1, 0
3.354617, 1, 1
3.354643, 1, 0
3.354721, 1, 1
3.354747, 1, 0
3.354799, 1, 1
3.354851, 1, 0
3.354877, 1, 1
8.021375, 0, 1
8.021401, 1, 1
8.021427, 0, 1
8.021609, 1, 1
8.021635, 0, 1
8.021661, 1, 1
8.021687, 0, 1
8.021713, 1, 1
8.021739, 0, 1
8.021870, 1, 1
8.021896, 0, 1
8.021922, 1, 1
8.021948, 0, 1
8.022052, 1, 1
8.022078, 0, 1
8.022130, 1, 1
8.022156, 0, 1
8.022391, 1, 1
8.022417, 0, 1
8.022469, 1, 1
8.022495, 0, 1
8.022573, 1, 1
8.022599, 0, 1
8.022651, 1, 1
8.022677, 0, 1
8.022782, 1, 1
8.022808, 0, 1
8.022860, 1, 1
8.022886, 0, 1
8.022912, 1, 1
8.048262, 1, 0
8.048288, 1, 1
8.048314, 1, 0
8.048496, 1, 1
8.048522, 1, 0
8.048600, 1, 1
8.048626, 1, 0
8.048756, 1, 1
8.048782, 1, 0
8.048808, 1, 1
8.048834, 1, 0
8.048938, 1, 1
8.048964, 1, 0
8.048990, 1, 1
8.049042, 1, 0
8.049276, 1, 1
8.049302, 1, 0
8.049328, 1, 1
8.049354, 1, 0
8.049380, 1, 1
8.049406, 1, 0
8.049458, 1, 1
8.049484, 1, 0
8.049510, 1, 1
8.098416, 1, 0
8.098442, 1, 1
8.098468, 1, 0
8.098650, 1, 1
8.098676, 1, 0
8.098728, 1, 1
8.098754, 1, 0
8.098780, 1, 1
8.098806, 1, 0
8.098910, 1, 1
8.098936, 1, 0
8.099092, 1, 1
8.099118, 1, 0
8.099170, 1, 1
8.099196, 1, 0
8.099430, 1, 1
8.099456, 1, 0
8.099586, 1, 1
8.099612, 1, 0
8.099690, 1, 1
8.099716, 1, 0
8.099820, 1, 1
8.099846, 1, 0
8.099924, 1, 1
8.099976, 1, 0
8.100028, 1, 1
8.100054, 1, 0
8.100210, 1, 1
8.100236, 1, 0
8.100262, 1, 1
8.100496, 1, 0
8.100522, 1, 1
8.100756, 1, 0
8.100990, 1, 1
8.101016, 1, 0
8.101068, 1, 1
8.101094, 1, 0
8.101198, 1, 1
8.149584, 1, 0
8.149610, 1, 1
8.149636, 1, 0
8.149818, 1, 1
8.149844, 1, 0
8.149922, 1, 1
8.149948, 1, 0
8.149974, 1, 1
8.150000, 1, 0
8.150078, 1, 1
8.150104, 1, 0
8.150156, 1, 1
8.150182, 1, 0
8.150260, 1, 1
8.150286, 1, 0
8.150338, 1, 1
8.150364, 1, 0
8.150598, 1, 1
8.150624, 1, 0
8.150650, 1, 1
8.150676, 1, 0
8.150702, 1, 1
8.150728, 1, 0
8.150806, 1, 1
8.150832, 1, 0
8.150858, 1, 1
8.150884, 1, 0
8.150936, 1, 1
8.150962, 1, 0
8.151014, 1, 1
8.151040, 1, 0
8.151118, 1, 1
8.151144, 1, 0
8.151222, 1, 1
8.151248, 1, 0
8.151326, 1, 1
8.151352, 1, 0
8.151378, 1, 1
8.151404, 1, 0
8.151430, 1, 1
8.151456, 1, 0
8.151508, 1, 1
8.151560, 1, 0
8.151638, 1, 1
8.151664, 1, 0
8.151898, 1, 1
8.151924, 1, 0
8.151950, 1, 1
8.152054, 1, 0
8.152080, 1, 1
8.152184, 1, 0
8.152418, 1, 1
8.152444, 1, 0
8.152678, 1, 1
8.152704, 1, 0
8.152938, 1, 1
8.152964, 1, 0
8.153016, 1, 1
8.153042, 1, 0
8.153198, 1, 1
8.153224, 1, 0
8.153276, 1, 1
8.153302, 1, 0
8.153328, 1, 1
8.153484, 1, 0
8.153510, 1, 1
8.153744, 1, 0
8.153770, 1, 1
8.154004, 1, 0
8.154134, 1, 1
8.154160, 1, 0
8.154212, 1, 1
8.154264, 1, 0
8.154290, 1, 1
8.154316, 1, 0
8.154498, 1, 1
8.154524, 1, 0
8.154758, 1, 1
8.154784, 1, 0
8.154862, 1, 1
8.154888, 1, 0
8.154940, 1, 1
8.154992, 1, 0
8.155018, 1, 1
13.028598, 0, 1
13.028624, 1, 1
13.028650, 0, 1
13.028832, 1, 1
13.028858, 0, 1
13.028884, 1, 1
13.028911, 0, 1
13.028937, 1, 1
13.028963, 0, 1
13.029093, 1, 1
13.029119, 0, 1
13.029145, 1, 1
13.029171, 0, 1
13.029275, 1, 1
13.029301, 0, 1
13.029353, 1, 1
13.029380, 0, 1
13.029614, 1, 1
13.029640, 0, 1
13.029692, 1, 1
13.029718, 0, 1
13.029796, 1, 1
13.029822, 0, 1
13.029875, 1, 1
13.029901, 0, 1
13.030005, 1, 1
13.030031, 0, 1
13.030083, 1, 1
13.030109, 0, 1
13.030135, 1, 1
13.050294, 1, 0
13.050320, 1, 1
13.050346, 1, 0
13.050528, 1, 1
13.050554, 1, 0
13.050632, 1, 1
13.050658, 1, 0
13.050788, 1, 1
13.050814, 1, 0
13.050840, 1, 1
13.050866, 1, 0
13.050970, 1, 1
13.050996, 1, 0
13.051022, 1, 1
13.051074, 1, 0
13.051308, 1, 1
13.051334, 1, 0
13.051360, 1, 1
13.051386, 1, 0
13.051412, 1, 1
13.051438, 1, 0
13.051490, 1, 1
13.051516, 1, 0
13.051542, 1, 1
13.100656, 1, 0
13.100682, 1, 1
13.100708, 1, 0
13.100890, 1, 1
13.100916, 1, 0
13.100968, 1, 1
13.100994, 1, 0
13.101020, 1, 1
13.101046, 1, 0
13.101150, 1, 1
13.101176, 1, 0
13.101332, 1, 1
13.101358, 1, 0
13.101410, 1, 1
13.101436, 1, 0
13.101670, 1, 1
13.101696, 1, 0
13.101826, 1, 1
13.101852, 1, 0
13.101930, 1, 1
13.101956, 1, 0
13.102060, 1, 1
13.102086, 1, 0
13.102164, 1, 1
13.102216, 1, 0
13.102268, 1, 1
13.102294, 1, 0
13.102450, 1, 1
13.102476, 1, 0
13.102502, 1, 1
13.102736, 1, 0
13.102762, 1, 1
13.102996, 1, 0
13.103230, 1, 1
13.103256, 1, 0
13.103308, 1, 1
13.103334, 1, 0
13.103438, 1, 1
13.150654, 1, 0
13.150680, 1, 1
13.150706, 1, 0
13.150888, 1, 1
13.150914, 1, 0
13.150992, 1, 1
13.151018, 1, 0
13.151044, 1, 1
13.151070, 1, 0
13.151148, 1, 1
13.151174, 1, 0
13.151226, 1, 1
13.151252, 1, 0
13.151330, 1, 1
13.151356, 1, 0
13.151408, 1, 1
13.151434, 1, 0
13.151668, 1, 1
13.151694, 1, 0
13.151720, 1, 1
13.151746, 1, 0
13.151772, 1, 1
13.151798, 1, 0
13.151876, 1, 1
13.151902, 1, 0
13.151928, 1, 1
13.151954, 1, 0
13.152006, 1, 1
13.152032, 1, 0
13.152084, 1, 1
13.152110, 1, 0
13.152188, 1, 1
13.152214, 1, 0
13.152292, 1, 1
13.152318, 1, 0
13.152396, 1, 1
13.152422, 1, 0
13.152448, 1, 1
13.152474, 1, 0
13.152500, 1, 1
13.152526, 1, 0
13.152578, 1, 1
13.152630, 1, 0
13.152708, 1, 1
13.152734, 1, 0
13.152968, 1, 1
13.152994, 1, 0
13.153020, 1, 1
13.153124, 1, 0
13.153150, 1, 1
13.153254, 1, 0
13.153488, 1, 1
13.153514, 1, 0
13.153748, 1, 1
13.153774, 1, 0
13.154008, 1, 1
13.154034, 1, 0
13.154086, 1, 1
13.154112, 1, 0
13.154268, 1, 1
13.154294, 1, 0
13.154346, 1, 1
13.154372, 1, 0
13.154398, 1, 1
13.154554, 1, 0
13.154580, 1, 1
13.154814, 1, 0
13.154840, 1, 1
13.155074, 1, 0
13.155204, 1, 1
13.155230, 1, 0
13.155282, 1, 1
13.155334, 1, 0
13.155360, 1, 1
13.155386, 1, 0
13.155568, 1, 1
13.155594, 1, 0
13.155828, 1, 1
13.155854, 1, 0
13.155932, 1, 1
13.155958, 1, 0
13.156010, 1, 1
13.156062, 1, 0
13.156088, 1, 1
18.036025, 0, 1
18.036051, 1, 1
18.036077, 0, 1
18.036260, 1, 1
18.036286, 0, 1
18.036312, 1, 1
18.036338, 0, 1
18.036364, 1, 1
18.036390, 0, 1
18.036520, 1, 1
18.036546, 0, 1
18.036572, 1, 1
18.036598, 0, 1
18.036703, 1, 1
18.036729, 0, 1
18.036781, 1, 1
18.036807, 0, 1
18.037041, 1, 1
18.037067, 0, 1
18.037119, 1, 1
18.037146, 0, 1
18.037224, 1, 1
18.037250, 0, 1
18.037302, 1, 1
18.037328, 0, 1
18.037432, 1, 1
18.037458, 0, 1
18.037510, 1, 1
18.037536, 0, 1
18.037562, 1, 1
18.236046, 0, 1
18.236281, 1, 1
18.236307, 0, 1
18.236541, 1, 1
18.236567, 0, 1
18.236802, 1, 1
18.236828, 0, 1
18.237063, 1, 1
18.237089, 0, 1
18.237323, 1, 1
18.237349, 0, 1
18.237584, 1, 1
18.237610, 0, 1
18.237844, 1, 1
18.237870, 0, 1
18.238105, 1, 1
18.238131, 0, 1
18.238365, 1, 1
18.238391, 0, 1
18.238626, 1, 1
18.238652, 0, 1
18.238886, 1, 1
18.238912, 0, 1
18.239147, 1, 1
18.239173, 0, 1
18.239407, 1, 1
18.239433, 0, 1
18.239668, 1, 1
18.239694, 0, 1
18.239929, 1, 1
18.239955, 0, 1
18.240189, 1, 1
18.256942, 0, 1
18.257177, 1, 1
18.257203, 0, 1
18.257437, 1, 1
18.257463, 0, 1
18.257698, 1, 1
18.257724, 0, 1
18.257958, 1, 1
18.257984, 0, 1
18.258219, 1, 1
18.258245, 0, 1
18.258479, 1, 1
18.258505, 0, 1
18.258740, 1, 1
18.258766, 0, 1
18.259000, 1, 1
18.259027, 0, 1
18.259261, 1, 1
18.259287, 0, 1
18.259522, 1, 1
18.259548, 0, 1
18.259782, 1, 1
18.259808, 0, 1
18.260043, 1, 1
18.260069, 0, 1
18.260303, 1, 1
18.260329, 0, 1
18.260564, 1, 1
18.260590, 0, 1
18.260824, 1, 1
18.260850, 0, 1
18.261085, 1, 1
18.278046, 0, 1
18.278281, 1, 1
18.278307, 0, 1
18.278541, 1, 1
18.278567, 0, 1
18.278802, 1, 1
18.278828, 0, 1
18.279063, 1, 1
18.279089, 0, 1
18.279323, 1, 1
18.279349, 0, 1
18.279584, 1, 1
18.279610, 0, 1
18.279844, 1, 1
18.279870, 0, 1
18.280105, 1, 1
18.280131, 0, 1
18.280365, 1, 1
18.280391, 0, 1
18.280626, 1, 1
18.280652, 0, 1
18.280886, 1, 1
18.280912, 0, 1
18.281147, 1, 1
18.281173, 0, 1
18.281407, 1, 1
18.281433, 0, 1
18.281668, 1, 1
18.281694, 0, 1
18.281929, 1, 1
18.281955, 0, 1
18.282189, 1, 1
18.298942, 0, 1
18.299177, 1, 1
18.299203, 0, 1
18.299437, 1, 1
18.299463, 0, 1
18.299698, 1, 1
18.299724, 0, 1
18.299958, 1, 1
18.299984, 0, 1
18.300219, 1, 1
18.300245, 0, 1
18.300479, 1, 1
18.300505, 0, 1
18.300740, 1, 1
18.300766, 0, 1
18.301000, 1, 1
18.301027, 0, 1
18.301261, 1, 1
18.301287, 0, 1
18.301522, 1, 1
18.301548, 0, 1
18.301782, 1, 1
18.301808, 0, 1
18.302043, 1, 1
18.302069, 0, 1
18.302303, 1, 1
18.302329, 0, 1
18.302564, 1, 1
18.302590, 0, 1
18.302824, 1, 1
18.302850, 0, 1
18.303085, 1, 1
18.320046, 0, 1
18.320281, 1, 1
18.320307, 0, 1
18.320541, 1, 1
18.320568, 0, 1
18.320802, 1, 1
18.320828, 0, 1
18.321063, 1, 1
18.321089, 0, 1
18.321323, 1, 1
18.321349, 0, 1
18.321584, 1, 1
18.321610, 0, 1
18.321844, 1, 1
18.321870, 0, 1
18.322105, 1, 1
18.322131, 0, 1
18.322365, 1, 1
18.322391, 0, 1
18.322626, 1, 1
18.322652, 0, 1
18.322886, 1, 1
18.322912, 0, 1
18.323147, 1, 1
18.323173, 0, 1
18.323407, 1, 1
18.323434, 0, 1
18.323668, 1, 1
18.323694, 0, 1
18.323929, 1, 1
18.323955, 0, 1
18.324189, 1, 1
18.341046, 0, 1
18.341281, 1, 1
18.341307, 0, 1
18.341541, 1, 1
18.341568, 0, 1
18.341802, 1, 1
18.341828, 0, 1
18.342063, 1, 1
18.342089, 0, 1
18.342323, 1, 1
18.342349, 0, 1
18.342584, 1, 1
18.342610, 0, 1
