Time[s], Channel 0, Channel 1
0.000000, 1, 1
4.455815, 0, 1
4.455841, 1, 1
4.455867, 0, 1
4.456049, 1, 1
4.456075, 0, 1
4.456101, 1, 1
4.456127, 0, 1
4.456153, 1, 1
4.456179, 0, 1
4.456310, 1, 1
4.456336, 0, 1
4.456362, 1, 1
4.456388, 0, 1
4.456492, 1, 1
4.456518, 0, 1
4.456570, 1, 1
4.456596, 0, 1
4.456831, 1, 1
4.456857, 0, 1
4.456909, 1, 1
4.456935, 0, 1
4.457013, 1, 1
4.457039, 0, 1
4.457091, 1, 1
4.457117, 0, 1
4.457222, 1, 1
4.457248, 0, 1
4.457300, 1, 1
4.457326, 0, 1
4.457352, 1, 1
4.655732, 0, 1
4.655966, 1, 1
4.655992, 0, 1
4.656227, 1, 1
4.656253, 0, 1
4.656487, 1, 1
4.656513, 0, 1
4.656748, 1, 1
4.656774, 0, 1
4.657008, 1, 1
4.657034, 0, 1
4.657269, 1, 1
4.657295, 0, 1
4.657529, 1, 1
4.657556, 0, 1
4.657790, 1, 1
4.657816, 0, 1
4.658051, 1, 1
4.658077, 0, 1
4.658311, 1, 1
4.658337, 0, 1
4.658572, 1, 1
4.658598, 0, 1
4.658832, 1, 1
4.658858, 0, 1
4.659093, 1, 1
4.659119, 0, 1
4.659353, 1, 1
4.659379, 0, 1
4.659614, 1, 1
4.659640, 0, 1
4.659874, 1, 1
4.676732, 0, 1
4.676966, 1, 1
4.676992, 0, 1
4.677227, 1, 1
4.677253, 0, 1
4.677487, 1, 1
4.677513, 0, 1
4.677748, 1, 1
4.677774, 0, 1
4.678008, 1, 1
4.678034, 0, 1
4.678269, 1, 1
4.678295, 0, 1
4.678529, 1, 1
4.678556, 0, 1
4.678790, 1, 1
4.678816, 0, 1
4.679051, 1, 1
4.679077, 0, 1
4.679311, 1, 1
4.679337, 0, 1
4.679572, 1, 1
4.679598, 0, 1
4.679832, 1, 1
4.679858, 0, 1
4.680093, 1, 1
4.680119, 0, 1
4.680353, 1, 1
4.680379, 0, 1
4.680614, 1, 1
4.680640, 0, 1
4.680874, 1, 1
4.697732, 0, 1
4.697966, 1, 1
4.697992, 0, 1
4.698227, 1, 1
4.698253, 0, 1
4.698487, 1, 1
4.698513, 0, 1
4.698748, 1, 1
4.698774, 0, 1
4.699008, 1, 1
4.699034, 0, 1
4.699269, 1, 1
4.699295, 0, 1
4.699530, 1, 1
4.699556, 0, 1
4.699790, 1, 1
4.699816, 0, 1
4.700051, 1, 1
4.700077, 0, 1
4.700311, 1, 1
4.700337, 0, 1
4.700572, 1, 1
4.700598, 0, 1
4.700832, 1, 1
4.700858, 0, 1
4.701093, 1, 1
4.701119, 0, 1
4.701353, 1, 1
4.701379, 0, 1
4.701614, 1, 1
4.701640, 0, 1
4.701874, 1, 1
4.718706, 0, 1
4.718940, 1, 1
4.718966, 0, 1
4.719201, 1, 1
4.719227, 0, 1
4.719461, 1, 1
4.719487, 0, 1
4.719722, 1, 1
4.719748, 0, 1
4.719982, 1, 1
4.720008, 0, 1
4.720243, 1, 1
4.720269, 0, 1
4.720503, 1, 1
4.720530, 0, 1
4.720764, 1, 1
4.720790, 0, 1
4.721025, 1, 1
4.721051, 0, 1
4.721285, 1, 1
4.721311, 0, 1
4.721546, 1, 1
4.721572, 0, 1
4.721806, 1, 1
4.721832, 0, 1
4.722067, 1, 1
4.722093, 0, 1
4.722327, 1, 1
4.722353, 0, 1
4.722588, 1, 1
4.722614, 0, 1
4.722848, 1, 1
4.739836, 0, 1
4.740070, 1, 1
4.740097, 0, 1
4.740331, 1, 1
4.740357, 0, 1
4.740592, 1, 1
4.740618, 0, 1
4.740852, 1, 1
4.740878, 0, 1
4.741113, 1, 1
4.741139, 0, 1
4.741373, 1, 1
4.741399, 0, 1
4.741634, 1, 1
4.741660, 0, 1
4.741894, 1, 1
4.741920, 0, 1
4.742155, 1, 1
4.742181, 0, 1
4.742415, 1, 1
4.742441, 0, 1
4.742676, 1, 1
4.742702, 0, 1
4.742936, 1, 1
4.742963, 0, 1
4.743197, 1, 1
4.743223, 0, 1
4.743458, 1, 1
4.743484, 0, 1
4.743718, 1, 1
4.743744, 0, 1
4.743979, 1, 1
4.760706, 0, 1
4.760940, 1, 1
4.760966, 0, 1
4.761201, 1, 1
4.761227, 0, 1
4.761461, 1, 1
4.761487, 0, 1
4.761722, 1, 1
4.761748, 0, 1
4.761982, 1, 1
4.762008, 0, 1
4.762243, 1, 1
4.762269, 0, 1
4.762503, 1, 1
4.762530, 0, 1
4.762764, 1, 1
4.762790, 0, 1
4.763025, 1, 1
4.763051, 0, 1
4.763285, 1, 1
4.763311, 0, 1
4.763546, 1, 1
4.763572, 0, 1
4.763806, 1, 1
4.763832, 0, 1
4.764067, 1, 1
4.764093, 0, 1
4.764327, 1, 1
4.764353, 0, 1
4.764588, 1, 1
4.764614, 0, 1
4.764848, 1, 1
4.781836, 0, 1
4.782071, 1, 1
4.782097, 0, 1
4.782331, 1, 1
4.782357, 0, 1
4.782592, 1, 1
4.782618, 0, 1
4.782852, 1, 1
4.782878, 0, 1
4.783113, 1, 1
4.783139, 0, 1
4.783373, 1, 1
4.783399, 0, 1
4.783634, 1, 1
4.783660, 0, 1
4.783894, 1, 1
4.783920, 0, 1
4.784155, 1, 1
4.784181, 0, 1
4.784415, 1, 1
4.784441, 0, 1
4.784676, 1, 1
4.784702, 0, 1
4.784937, 1, 1
4.784963, 0, 1
4.785197, 1, 1
4.785223, 0, 1
4.785458, 1, 1
4.785484, 0, 1
4.785718, 1, 1
4.785744, 0, 1
4.785979, 1, 1
4.802836, 0, 1
4.803071, 1, 1
4.803097, 0, 1
4.803331, 1, 1
4.803357, 0, 1
4.803592, 1, 1
4.803618, 0, 1
4.803852, 1, 1
4.803878, 0, 1
4.804113, 1, 1
4.804139, 0, 1
4.804373, 1, 1
4.804399, 0, 1
4.804634, 1, 1
4.804660, 0, 1
4.804894, 1, 1
4.804920, 0, 1
4.805155, 1, 1
4.805181, 0, 1
4.805415, 1, 1
4.805441, 0, 1
4.805676, 1, 1
4.805702, 0, 1
4.805937, 1, 1
4.805963, 0, 1
4.806197, 1, 1
4.806223, 0, 1
4.806458, 1, 1
4.806484, 0, 1
4.806718, 1, 1
4.806744, 0, 1
4.806979, 1, 1
4.823706, 0, 1
4.823940, 1, 1
4.823966, 0, 1
4.824201, 1, 1
4.824227, 0, 1
4.824461, 1, 1
4.824487, 0, 1
4.824722, 1, 1
4.824748, 0, 1
4.824982, 1, 1
4.825008, 0, 1
4.825243, 1, 1
4.825269, 0, 1
4.825504, 1, 1
4.825530, 0, 1
4.825764, 1, 1
4.825790, 0, 1
4.826025, 1, 1
4.826051, 0, 1
4.826285, 1, 1
4.826311, 0, 1
4.826546, 1, 1
4.826572, 0, 1
4.826806, 1, 1
4.826832, 0, 1
4.827067, 1, 1
4.827093, 0, 1
4.827327, 1, 1
4.827353, 0, 1
4.827588, 1, 1
4.827614, 0, 1
4.827848, 1, 1
4.844836, 0, 1
4.845071, 1, 1
4.845097, 0, 1
4.845331, 1, 1
4.845357, 0, 1
4.845592, 1, 1
4.845618, 0, 1
4.845852, 1, 1
4.845878, 0, 1
4.846113, 1, 1
4.846139, 0, 1
4.846373, 1, 1
4.846399, 0, 1
4.846634, 1, 1
4.846660, 0, 1
4.846894, 1, 1
4.846920, 0, 1
4.847155, 1, 1
4.847181, 0, 1
4.847415, 1, 1
4.847442, 0, 1
4.847676, 1, 1
4.847702, 0, 1
4.847937, 1, 1
4.847963, 0, 1
4.848197, 1, 1
4.848223, 0, 1
4.848458, 1, 1
4.848484, 0, 1
4.848718, 1, 1
4.848744, 0, 1
4.848979, 1, 1
4.865706, 0, 1
4.865940, 1, 1
4.865966, 0, 1
4.866201, 1, 1
4.866227, 0, 1
4.866461, 1, 1
4.866487, 0, 1
4.866722, 1, 1
4.866748, 0, 1
4.866982, 1, 1
4.867009, 0, 1
4.867243, 1, 1
4.867269, 0, 1
4.867504, 1, 1
4.867530, 0, 1
4.867764, 1, 1
4.867790, 0, 1
4.868025, 1, 1
4.868051, 0, 1
4.868285, 1, 1
4.868311, 0, 1
4.868546, 1, 1
4.868572, 0, 1
4.868806, 1, 1
4.868832, 0, 1
4.869067, 1, 1
4.869093, 0, 1
4.869327, 1, 1
4.869353, 0, 1
4.869588, 1, 1
4.869614, 0, 1
4.869848, 1, 1
4.886836, 0, 1
4.887071, 1, 1
4.887097, 0, 1
4.887331, 1, 1
4.887357, 0, 1
4.887592, 1, 1
4.887618, 0, 1
4.887852, 1, 1
4.887878, 0, 1
4.888113, 1, 1
4.888139, 0, 1
4.888373, 1, 1
4.888399, 0, 1
4.888634, 1, 1
4.888660, 0, 1
4.888894, 1, 1
4.888920, 0, 1
4.889155, 1, 1
4.889181, 0, 1
4.889415, 1, 1
4.889442, 0, 1
4.889676, 1, 1
4.889702, 0, 1
4.889937, 1, 1
4.889963, 0, 1
4.890197, 1, 1
4.890223, 0, 1
4.890458, 1, 1
4.890484, 0, 1
4.890718, 1, 1
4.890744, 0, 1
4.890979, 1, 1
4.907836, 0, 1
4.908071, 1, 1
4.908097, 0, 1
4.908331, 1, 1
4.908357, 0, 1
4.908592, 1, 1
4.908618, 0, 1
4.908852, 1, 1
4.908878, 0, 1
4.909113, 1, 1
4.909139, 0, 1
4.909373, 1, 1
4.909399, 0, 1
4.909634, 1, 1
4.909660, 0, 1
4.909894, 1, 1
4.909920, 0, 1
4.910155, 1, 1
4.910181, 0, 1
4.910415, 1, 1
4.910442, 0, 1
4.910676, 1, 1
4.910702, 0, 1
4.910937, 1, 1
4.910963, 0, 1
4.911197, 1, 1
4.911223, 0, 1
4.911458, 1, 1
4.911484, 0, 1
4.911718, 1, 1
4.911744, 0, 1
4.911979, 1, 1
4.928732, 0, 1
4.928966, 1, 1
4.928992, 0, 1
4.929227, 1, 1
4.929253, 0, 1
4.929487, 1, 1
4.929514, 0, 1
4.929748, 1, 1
4.929774, 0, 1
4.930009, 1, 1
4.930035, 0, 1
4.930269, 1, 1
4.930295, 0, 1
4.930530, 1, 1
4.930556, 0, 1
4.930790, 1, 1
4.930816, 0, 1
4.931051, 1, 1
4.931077, 0, 1
4.931311, 1, 1
4.931337, 0, 1
4.931572, 1, 1
4.931598, 0, 1
4.931832, 1, 1
4.931858, 0, 1
4.932093, 1, 1
4.932119, 0, 1
4.932353, 1, 1
4.932380, 0, 1
4.932614, 1, 1
4.932640, 0, 1
4.932875, 1, 1
4.949836, 0, 1
4.950071, 1, 1
4.950097, 0, 1
4.950331, 1, 1
4.950357, 0, 1
4.950592, 1, 1
4.950618, 0, 1
4.950852, 1, 1
4.950878, 0, 1
4.951113, 1, 1
4.951139, 0, 1
4.951373, 1, 1
4.951399, 0, 1
4.951634, 1, 1
4.951660, 0, 1
4.951894, 1, 1
4.951920, 0, 1
4.952155, 1, 1
4.952181, 0, 1
4.952416, 1, 1
4.952442, 0, 1
4.952676, 1, 1
4.952702, 0, 1
4.952937, 1, 1
4.952963, 0, 1
4.953197, 1, 1
4.953223, 0, 1
4.953458, 1, 1
4.953484, 0, 1
4.953718, 1, 1
4.953744, 0, 1
4.953979, 1, 1
4.970732, 0, 1
4.970966, 1, 1
4.970992, 0, 1
4.971227, 1, 1
4.971253, 0, 1
4.971488, 1, 1
4.971514, 0, 1
4.971748, 1, 1
4.971774, 0, 1
4.972009, 1, 1
4.972035, 0, 1
4.972269, 1, 1
4.972295, 0, 1
4.972530, 1, 1
4.972556, 0, 1
4.972790, 1, 1
4.972816, 0, 1
4.973051, 1, 1
4.973077, 0, 1
4.973311, 1, 1
4.973337, 0, 1
4.973572, 1, 1
4.973598, 0, 1
4.973832, 1, 1
4.973858, 0, 1
4.974093, 1, 1
4.974119, 0, 1
4.974354, 1, 1
4.974380, 0, 1
4.974614, 1, 1
4.974640, 0, 1
4.974875, 1, 1
4.991836, 0, 1
4.992071, 1, 1
4.992097, 0, 1
4.992331, 1, 1
4.992357, 0, 1
4.992592, 1, 1
4.992618, 0, 1
4.992852, 1, 1
4.992878, 0, 1
4.993113, 1, 1
4.993139, 0, 1
4.993373, 1, 1
4.993399, 0, 1
4.993634, 1, 1
4.993660, 0, 1
4.993894, 1, 1
4.993921, 0, 1
4.994155, 1, 1
4.994181, 0, 1
4.994416, 1, 1
4.994442, 0, 1
4.994676, 1, 1
4.994702, 0, 1
4.994937, 1, 1
4.994963, 0, 1
4.995197, 1, 1
4.995223, 0, 1
4.995458, 1, 1
4.995484, 0, 1
4.995718, 1, 1
4.995744, 0, 1
4.995979, 1, 1
5.092850, 0, 1
5.092876, 1, 1
5.092902, 0, 1
5.093084, 1, 1
5.093110, 0, 1
5.093136, 1, 1
5.093163, 0, 1
5.093189, 1, 1
5.093215, 0, 1
5.093345, 1, 1
5.093371, 0, 1
5.093397, 1, 1
5.093423, 0, 1
5.093527, 1, 1
5.093553, 0, 1
5.093605, 1, 1
5.093631, 0, 1
5.093866, 1, 1
5.093892, 0, 1
5.093944, 1, 1
5.093970, 0, 1
5.094048, 1, 1
5.094074, 0, 1
5.094127, 1, 1
5.094153, 0, 1
5.094257, 1, 1
5.094283, 0, 1
5.094335, 1, 1
5.094361, 0, 1
5.094387, 1, 1
5.140908, 1, 0
5.140934, 1, 1
5.140960, 1, 0
5.141142, 1, 1
5.141168, 1, 0
5.141246, 1, 1
5.141272, 1, 0
5.141402, 1, 1
5.141428, 1, 0
5.141454, 1, 1
5.141480, 1, 0
5.141584, 1, 1
5.141610, 1, 0
5.141636, 1, 1
5.141688, 1, 0
5.141922, 1, 1
5.141948, 1, 0
5.141974, 1, 1
5.142000, 1, 0
5.142026, 1, 1
5.142052, 1, 0
5.142104, 1, 1
5.142130, 1, 0
5.142156, 1, 1
5.191036, 1, 0
5.191062, 1, 1
5.191088, 1, 0
5.191270, 1, 1
5.191296, 1, 0
5.191348, 1, 1
5.191374, 1, 0
5.191400, 1, 1
5.191426, 1, 0
5.191530, 1, 1
5.191556, 1, 0
5.191712, 1, 1
5.191738, 1, 0
5.191790, 1, 1
5.191816, 1, 0
5.192050, 1, 1
5.192076, 1, 0
5.192128, 1, 1
5.192154, 1, 0
5.192206, 1, 1
5.192232, 1, 0
5.192310, 1, 1
5.192336, 1, 0
5.192440, 1, 1
5.192466, 1, 0
5.192518, 1, 1
5.192544, 1, 0
5.192570, 1, 1
5.192596, 1, 0
5.192648, 1, 1
5.192674, 1, 0
5.192830, 1, 1
5.192856, 1, 0
5.192882, 1, 1
5.192908, 1, 0
5.192986, 1, 1
5.193012, 1, 0
5.193064, 1, 1
5.193116, 1, 0
5.193142, 1, 1
5.193168, 1, 0
5.193350, 1, 1
5.193376, 1, 0
5.193610, 1, 1
5.193636, 1, 0
5.193740, 1, 1
5.193792, 1, 0
5.193870, 1, 1
5.242672, 1, 0
5.242698, 1, 1
5.242724, 1, 0
5.242906, 1, 1
5.242932, 1, 0
5.243010, 1, 1
5.243036, 1, 0
5.243062, 1, 1
5.243088, 1, 0
5.243166, 1, 1
5.243192, 1, 0
5.243244, 1, 1
5.243270, 1, 0
5.243348, 1, 1
5.243374, 1, 0
5.243426, 1, 1
5.243452, 1, 0
5.243686, 1, 1
5.243712, 1, 0
5.243738, 1, 1
5.243764, 1, 0
5.243790, 1, 1
5.243816, 1, 0
5.243894, 1, 1
5.243920, 1, 0
5.243946, 1, 1
5.243972, 1, 0
5.244024, 1, 1
5.244050, 1, 0
5.244102, 1, 1
5.244128, 1, 0
5.244206, 1, 1
5.244232, 1, 0
5.244310, 1, 1
5.244336, 1, 0
5.244414, 1, 1
5.244440, 1, 0
5.244466, 1, 1
5.244492, 1, 0
5.244518, 1, 1
5.244544, 1, 0
5.244596, 1, 1
5.244648, 1, 0
5.244726, 1, 1
5.244752, 1, 0
5.244986, 1, 1
5.245012, 1, 0
5.245038, 1, 1
5.245142, 1, 0
5.245168, 1, 1
5.245272, 1, 0
5.245506, 1, 1
5.245532, 1, 0
5.245766, 1, 1
5.245792, 1, 0
5.246026, 1, 1
5.246052, 1, 0
5.246104, 1, 1
5.246130, 1, 0
5.246286, 1, 1
5.246312, 1, 0
5.246364, 1, 1
5.246390, 1, 0
5.246416, 1, 1
5.246572, 1, 0
5.246598, 1, 1
5.246624, 1, 0
5.246702, 1, 1
5.246728, 1, 0
5.246780, 1, 1
5.246832, 1, 0
5.246858, 1, 1
5.246884, 1, 0
5.247066, 1, 1
5.247092, 1, 0
5.247222, 1, 1
5.247248, 1, 0
5.247300, 1, 1
5.247352, 1, 0
5.247378, 1, 1
5.247404, 1, 0
5.247586, 1, 1
5.247612, 1, 0
5.247846, 1, 1
5.247872, 1, 0
5.247976, 1, 1
9.901056, 0, 1
9.901083, 1, 1
9.901109, 0, 1
9.901291, 1, 1
9.901317, 0, 1
9.901343, 1, 1
9.901369, 0, 1
9.901395, 1, 1
9.901421, 0, 1
9.901551, 1, 1
9.901578, 0, 1
9.901604, 1, 1
9.901630, 0, 1
9.901734, 1, 1
9.901760, 0, 1
9.901812, 1, 1
9.901838, 0, 1
9.902073, 1, 1
9.902099, 0, 1
9.902151, 1, 1
9.902177, 0, 1
9.902255, 1, 1
9.902281, 0, 1
9.902333, 1, 1
9.902359, 0, 1
9.902463, 1, 1
9.902489, 0, 1
9.902542, 1, 1
9.902568, 0, 1
9.902594, 1, 1
9.935382, 1, 0
9.935408, 1, 1
9.935434, 1, 0
9.935616, 1, 1
9.935642, 1, 0
9.935720, 1, 1
9.935746, 1, 0
9.935876, 1, 1
9.935902, 1, 0
9.935928, 1, 1
9.935954, 1, 0
9.936058, 1, 1
9.936084, 1, 0
9.936110, 1, 1
9.936162, 1, 0
9.936396, 1, 1
9.936422, 1, 0
9.936448, 1, 1
9.936474, 1, 0
9.936500, 1, 1
9.936526, 1, 0
9.936578, 1, 1
9.936604, 1, 0
9.936630, 1, 1
9.985770, 1, 0
9.985796, 1, 1
9.985822, 1, 0
9.986004, 1, 1
9.986030, 1, 0
9.986082, 1, 1
9.986108, 1, 0
9.986134, 1, 1
9.986160, 1, 0
9.986264, 1, 1
9.986290, 1, 0
9.986446, 1, 1
9.986472, 1, 0
9.986524, 1, 1
9.986550, 1, 0
9.986784, 1, 1
9.986810, 1, 0
9.986862, 1, 1
9.986888, 1, 0
9.986940, 1, 1
9.986966, 1, 0
9.987044, 1, 1
9.987070, 1, 0
9.987174, 1, 1
9.987200, 1, 0
9.987252, 1, 1
9.987278, 1, 0
9.987304, 1, 1
9.987330, 1, 0
9.987382, 1, 1
9.987408, 1, 0
9.987564, 1, 1
9.987590, 1, 0
9.987616, 1, 1
9.987642, 1, 0
9.987720, 1, 1
9.987746, 1, 0
9.987798, 1, 1
9.987850, 1, 0
9.987876, 1, 1
9.987902, 1, 0
9.988084, 1, 1
9.988110, 1, 0
9.988344, 1, 1
9.988370, 1, 0
9.988474, 1, 1
9.988526, 1, 0
9.988604, 1, 1
10.035898, 1, 0
10.035924, 1, 1
10.035950, 1, 0
10.036132, 1, 1
10.036158, 1, 0
10.036236, 1, 1
10.036262, 1, 0
10.036288, 1, 1
10.036314, 1, 0
10.036392, 1, 1
10.036418, 1, 0
10.036470, 1, 1
10.036496, 1, 0
10.036574, 1, 1
10.036600, 1, 0
10.036652, 1, 1
10.036678, 1, 0
10.036912, 1, 1
10.036938, 1, 0
10.036964, 1, 1
10.036990, 1, 0
10.037016, 1, 1
10.037042, 1, 0
10.037120, 1, 1
10.037146, 1, 0
10.037172, 1, 1
10.037198, 1, 0
10.037250, 1, 1
10.037276, 1, 0
10.037328, 1, 1
10.037354, 1, 0
10.037432, 1, 1
10.037458, 1, 0
10.037536, 1, 1
10.037562, 1, 0
10.037640, 1, 1
10.037666, 1, 0
10.037692, 1, 1
10.037718, 1, 0
10.037744, 1, 1
10.037770, 1, 0
10.037822, 1, 1
10.037874, 1, 0
10.037952, 1, 1
10.037978, 1, 0
10.038212, 1, 1
10.039174, 1, 0
10.039200, 1, 1
10.039304, 1, 0
10.039330, 1, 1
10.039434, 1, 0
10.039668, 1, 1
10.039694, 1, 0
10.039928, 1, 1
10.039954, 1, 0
10.040188, 1, 1
10.040214, 1, 0
10.040266, 1, 1
10.040292, 1, 0
10.040448, 1, 1
10.040474, 1, 0
10.040526, 1, 1
10.040552, 1, 0
10.040578, 1, 1
10.040734, 1, 0
10.040760, 1, 1
10.040786, 1, 0
10.040864, 1, 1
10.040890, 1, 0
10.040942, 1, 1
10.040994, 1, 0
10.041020, 1, 1
10.041046, 1, 0
10.041228, 1, 1
10.041254, 1, 0
10.041384, 1, 1
10.041410, 1, 0
10.041462, 1, 1
10.041514, 1, 0
10.041540, 1, 1
10.041566, 1, 0
10.041748, 1, 1
10.041774, 1, 0
10.042008, 1, 1
10.042034, 1, 0
10.042138, 1, 1
14.907511, 0, 1
14.907537, 1, 1
14.907563, 0, 1
14.907745, 1, 1
14.907772, 0, 1
14.907798, 1, 1
14.907824, 0, 1
14.907850, 1, 1
14.907876, 0, 1
14.908006, 1, 1
14.908032, 0, 1
14.908058, 1, 1
14.908084, 0, 1
14.908188, 1, 1
14.908214, 0, 1
14.908267, 1, 1
14.908293, 0, 1
14.908527, 1, 1
14.908553, 0, 1
14.908605, 1, 1
14.908631, 0, 1
14.908710, 1, 1
14.908736, 0, 1
14.908788, 1, 1
14.908814, 0, 1
14.908918, 1, 1
14.908944, 0, 1
14.908996, 1, 1
14.909022, 0, 1
14.909048, 1, 1
14.932942, 1, 0
14.932968, 1, 1
14.932994, 1, 0
14.933176, 1, 1
14.933202, 1, 0
14.933280, 1, 1
14.933306, 1, 0
14.933436, 1, 1
14.933462, 1, 0
14.933488, 1, 1
14.933514, 1, 0
14.933618, 1, 1
14.933644, 1, 0
14.933670, 1, 1
14.933722, 1, 0
14.933956, 1, 1
14.933982, 1, 0
14.934008, 1, 1
14.934034, 1, 0
14.934060, 1, 1
14.934086, 1, 0
14.934138, 1, 1
14.934164, 1, 0
14.934190, 1, 1
14.982446, 1, 0
14.982472, 1, 1
14.982498, 1, 0
14.982680, 1, 1
14.982706, 1, 0
14.982758, 1, 1
14.982784, 1, 0
14.982810, 1, 1
14.982836, 1, 0
14.982940, 1, 1
14.982966, 1, 0
14.983122, 1, 1
14.983148, 1, 0
14.983200, 1, 1
14.983226, 1, 0
14.983460, 1, 1
14.983486, 1, 0
14.983538, 1, 1
14.983564, 1, 0
14.983616, 1, 1
14.983642, 1, 0
14.983720, 1, 1
14.983746, 1, 0
14.983850, 1, 1
14.983876, 1, 0
14.983928, 1, 1
14.983954, 1, 0
14.983980, 1, 1
14.984006, 1, 0
14.984058, 1, 1
14.984084, 1, 0
14.984240, 1, 1
14.984266, 1, 0
14.984292, 1, 1
14.984318, 1, 0
14.984396, 1, 1
14.984422, 1, 0
14.984474, 1, 1
14.984526, 1, 0
14.984552, 1, 1
14.984578, 1, 0
14.984760, 1, 1
14.984786, 1, 0
14.985020, 1, 1
14.985046, 1, 0
14.985150, 1, 1
14.985202, 1, 0
14.985280, 1, 1
15.032549, 1, 0
15.032575, 1, 1
15.032601, 1, 0
15.032783, 1, 1
15.032809, 1, 0
15.032887, 1, 1
15.032913, 1, 0
15.032939, 1, 1
15.032965, 1, 0
15.033043, 1, 1
15.033069, 1, 0
15.033121, 1, 1
15.033147, 1, 0
15.033225, 1, 1
15.033251, 1, 0
15.033303, 1, 1
15.033329, 1, 0
15.033563, 1, 1
15.033589, 1, 0
15.033615, 1, 1
15.033641, 1, 0
15.033667, 1, 1
15.033693, 1, 0
15.033771, 1, 1
15.033797, 1, 0
15.033823, 1, 1
15.033849, 1, 0
15.033901, 1, 1
15.033927, 1, 0
15.033979, 1, 1
15.034005, 1, 0
15.034083, 1, 1
15.034109, 1, 0
15.034187, 1, 1
15.034213, 1, 0
15.034291, 1, 1
15.034317, 1, 0
15.034343, 1, 1
15.034369, 1, 0
15.034395, 1, 1
15.034421, 1, 0
15.034473, 1, 1
15.034525, 1, 0
15.034603, 1, 1
15.034629, 1, 0
15.034863, 1, 1
15.034889, 1, 0
15.034915, 1, 1
15.035019, 1, 0
15.035045, 1, 1
15.035149, 1, 0
15.035383, 1, 1
15.036319, 1, 0
15.036553, 1, 1
15.036579, 1, 0
15.036813, 1, 1
15.036839, 1, 0
15.036891, 1, 1
15.036917, 1, 0
15.037073, 1, 1
15.037099, 1, 0
15.037151, 1, 1
15.037177, 1, 0
15.037203, 1, 1
15.037359, 1, 0
15.037385, 1, 1
15.037411, 1, 0
15.037489, 1, 1
15.037515, 1, 0
15.037567, 1, 1
15.037619, 1, 0
15.037645, 1, 1
15.037671, 1, 0
15.037853, 1, 1
15.037879, 1, 0
15.038009, 1, 1
15.038035, 1, 0
15.038087, 1, 1
15.038139, 1, 0
15.038165, 1, 1
15.038191, 1, 0
15.038373, 1, 1
15.038399, 1, 0
15.038633, 1, 1
15.038659, 1, 0
15.038763, 1, 1
19.914714, 0, 1
19.914740, 1, 1
19.914766, 0, 1
19.914948, 1, 1
19.914974, 0, 1
19.915000, 1, 1
19.915026, 0, 1
19.915052, 1, 1
19.915078, 0, 1
19.915209, 1, 1
19.915235, 0, 1
19.915261, 1, 1
19.915287, 0, 1
19.915391, 1, 1
19.915417, 0, 1
19.915469, 1, 1
19.915495, 0, 1
19.915730, 1, 1
19.915756, 0, 1
19.915808, 1, 1
19.915834, 0, 1
19.915912, 1, 1
19.915938, 0, 1
19.915990, 1, 1
19.916016, 0, 1
19.916121, 1, 1
19.916147, 0, 1
19.916199, 1, 1
19.916225, 0, 1
19.916251, 1, 1
19.927928, 1, 0
19.927954, 1, 1
19.927980, 1, 0
19.928162, 1, 1
19.928188, 1, 0
19.928266, 1, 1
19.928292, 1, 0
19.928422, 1, 1
19.928448, 1, 0
19.928474, 1, 1
19.928500, 1, 0
19.928604, 1, 1
19.928630, 1, 0
19.928656, 1, 1
19.928708, 1, 0
19.928942, 1, 1
19.928968, 0, 0
19.928969, 1, 0
19.928994, 1, 1
19.929020, 0, 0
19.929021, 1, 0
19.929046, 1, 1
19.929072, 0, 0
19.929073, 1, 0
19.929124, 1, 1
19.929150, 0, 0
19.929151, 1, 0
19.929176, 1, 1
19.978369, 1, 0
19.978395, 1, 1
19.978421, 1, 0
19.978603, 1, 1
19.978629, 1, 0
19.978681, 1, 1
19.978707, 1, 0
19.978733, 1, 1
19.978759, 1, 0
19.978863, 1, 1
19.978889, 1, 0
19.979045, 1, 1
19.979071, 1, 0
19.979123, 1, 1
19.979149, 1, 0
19.979383, 1, 1
19.979409, 1, 0
19.979461, 1, 1
19.979487, 1, 0
19.979539, 1, 1
19.979565, 1, 0
19.979643, 1, 1
19.979669, 1, 0
19.979773, 1, 1
19.979799, 1, 0
19.979851, 1, 1
19.979877, 1, 0
19.979903, 1, 1
19.979929, 1, 0
19.979981, 1, 1
19.980007, 1, 0
19.980163, 1, 1
19.980189, 1, 0
19.980215, 1, 1
19.980241, 1, 0
19.980319, 1, 1
19.980345, 1, 0
19.980397, 1, 1
19.980449, 1, 0
19.980475, 1, 1
19.980501, 1, 0
19.980683, 1, 1
19.980709, 1, 0
19.980943, 1, 1
19.980969, 1, 0
19.981073, 1, 1
19.981125, 1, 0
19.981203, 1, 1
20.028549, 1, 0
20.028575, 1, 1
20.028601, 1, 0
20.028783, 1, 1
20.028809, 1, 0
20.028887, 1, 1
20.028913, 1, 0
20.028939, 1, 1
20.028965, 1, 0
20.029043, 1, 1
20.029069, 1, 0
20.029121, 1, 1
20.029147, 1, 0
20.029225, 1, 1
20.029251, 1, 0
20.029303, 1, 1
20.029329, 1, 0
20.029563, 1, 1
20.029589, 1, 0
20.029615, 1, 1
20.029641, 1, 0
20.029667, 1, 1
20.029693, 1, 0
20.029771, 1, 1
20.029797, 1, 0
20.029823, 1, 1
20.029849, 1, 0
20.029901, 1, 1
20.029927, 1, 0
20.029979, 1, 1
20.030005, 1, 0
20.030083, 1, 1
20.030109, 1, 0
20.030187, 1, 1
20.030213, 1, 0
20.030291, 1, 1
20.030317, 1, 0
20.030343, 1, 1
20.030369, 1, 0
20.030395, 1, 1
20.030421, 1, 0
20.030473, 1, 1
20.030525, 1, 0
20.030603, 1, 1
20.030629, 1, 0
20.030863, 1, 1
20.030889, 1, 0
20.030915, 1, 1
20.031019, 1, 0
20.031045, 1, 1
20.031149, 1, 0
20.031383, 1, 1
20.031409, 1, 0
20.031643, 1, 1
20.031669, 1, 0
20.031903, 1, 1
20.031929, 1, 0
