Time[s], Channel 0, Channel 1
0.000000, 1, 1
1.798336, 0, 1
1.798362, 1, 1
1.798388, 0, 1
1.798571, 1, 1
1.798597, 0, 1
1.798623, 1, 1
1.798649, 0, 1
1.798675, 1, 1
1.798701, 0, 1
1.798831, 1, 1
1.798857, 0, 1
1.798883, 1, 1
1.798909, 0, 1
1.799014, 1, 1
1.799040, 0, 1
1.799092, 1, 1
1.799118, 0, 1
1.799352, 1, 1
1.799378, 0, 1
1.799430, 1, 1
1.799457, 0, 1
1.799535, 1, 1
1.799561, 0, 1
1.799613, 1, 1
1.799639, 0, 1
1.799743, 1, 1
1.799769, 0, 1
1.799821, 1, 1
1.799847, 0, 1
1.799873, 1, 1
1.835908, 1, 0
1.835934, 1, 1
1.835960, 1, 0
1.836142, 1, 1
1.836168, 1, 0
1.836246, 1, 1
1.836272, 1, 0
1.836402, 1, 1
1.836428, 1, 0
1.836454, 1, 1
1.836480, 1, 0
1.836584, 1, 1
1.836610, 1, 0
1.836636, 1, 1
1.836688, 1, 0
1.836922, 1, 1
1.836948, 1, 0
1.836974, 1, 1
1.837000, 1, 0
1.837026, 1, 1
1.837052, 1, 0
1.837104, 1, 1
1.837130, 1, 0
1.837156, 1, 1
1.886036, 1, 0
1.886062, 1, 1
1.886088, 1, 0
1.886270, 1, 1
1.886296, 1, 0
1.886348, 1, 1
1.886374, 1, 0
1.886400, 1, 1
1.886426, 1, 0
1.886530, 1, 1
1.886556, 1, 0
1.886712, 1, 1
1.886738, 1, 0
1.886790, 1, 1
1.886816, 1, 0
1.887050, 1, 1
1.887076, 1, 0
1.887154, 1, 1
1.887180, 1, 0
1.887206, 1, 1
1.887232, 1, 0
1.887310, 1, 1
1.887336, 1, 0
1.887440, 1, 1
1.887466, 1, 0
1.887544, 1, 1
1.887596, 1, 0
1.887622, 1, 1
1.887648, 1, 0
1.887674, 1, 1
1.887700, 1, 0
1.887830, 1, 1
1.887856, 1, 0
1.887882, 1, 1
1.888116, 1, 0
1.888142, 1, 1
1.888376, 1, 0
1.888610, 1, 1
1.888636, 1, 0
1.888662, 1, 1
1.888688, 1, 0
1.888740, 1, 1
1.888766, 1, 0
1.888818, 1, 1
1.937282, 1, 0
1.937308, 1, 1
1.937334, 1, 0
1.937516, 1, 1
1.937542, 1, 0
1.937620, 1, 1
1.937646, 1, 0
1.937672, 1, 1
1.937698, 1, 0
1.937776, 1, 1
1.937802, 1, 0
1.937854, 1, 1
1.937880, 1, 0
1.937958, 1, 1
1.937984, 1, 0
1.938036, 1, 1
1.938062, 1, 0
1.938296, 1, 1
1.938322, 1, 0
1.938348, 1, 1
1.938374, 1, 0
1.938400, 1, 1
1.938426, 1, 0
1.938504, 1, 1
1.938530, 1, 0
1.938556, 1, 1
1.938582, 1, 0
1.938634, 1, 1
1.938660, 1, 0
1.938712, 1, 1
1.938738, 1, 0
1.938816, 1, 1
1.938842, 1, 0
1.938920, 1, 1
1.938946, 1, 0
1.939024, 1, 1
1.939050, 1, 0
1.939076, 1, 1
1.939102, 1, 0
1.939128, 1, 1
1.939154, 1, 0
1.939206, 1, 1
1.939258, 1, 0
1.939336, 1, 1
1.939362, 1, 0
1.939596, 1, 1
1.939622, 1, 0
1.939674, 1, 1
1.939752, 1, 0
1.939778, 1, 1
1.939882, 1, 0
1.940116, 1, 1
1.940142, 1, 0
1.940376, 1, 1
1.940402, 1, 0
1.940636, 1, 1
1.940662, 1, 0
1.940688, 1, 1
1.940714, 1, 0
1.940740, 1, 1
1.940766, 1, 0
1.940896, 1, 1
1.940922, 1, 0
1.940974, 1, 1
1.941000, 1, 0
1.941026, 1, 1
1.941182, 1, 0
1.941208, 1, 1
1.941442, 1, 0
1.941468, 1, 1
1.941702, 1, 0
1.941832, 1, 1
1.941858, 1, 0
1.941910, 1, 1
1.941962, 1, 0
1.941988, 1, 1
1.942014, 1, 0
1.942196, 1, 1
1.942222, 1, 0
1.942456, 1, 1
1.942482, 1, 0
1.942534, 1, 1
1.942586, 1, 0
1.942638, 1, 1
1.942690, 1, 0
1.942716, 1, 1
6.805560, 0, 1
6.805586, 1, 1
6.805612, 0, 1
6.805794, 1, 1
6.805820, 0, 1
6.805846, 1, 1
6.805872, 0, 1
6.805898, 1, 1
6.805924, 0, 1
6.806055, 1, 1
6.806081, 0, 1
6.806107, 1, 1
6.806133, 0, 1
6.806237, 1, 1
6.806263, 0, 1
6.806315, 1, 1
6.806341, 0, 1
6.806576, 1, 1
6.806602, 0, 1
6.806654, 1, 1
6.806680, 0, 1
6.806758, 1, 1
6.806784, 0, 1
6.806836, 1, 1
6.806862, 0, 1
6.806967, 1, 1
6.806993, 0, 1
6.807045, 1, 1
6.807071, 0, 1
6.807097, 1, 1
7.005685, 0, 1
7.005920, 1, 1
7.005946, 0, 1
7.006180, 1, 1
7.006206, 0, 1
7.006441, 1, 1
7.006467, 0, 1
7.006701, 1, 1
7.006727, 0, 1
7.006962, 1, 1
7.006988, 0, 1
7.007222, 1, 1
7.007248, 0, 1
7.007483, 1, 1
7.007509, 0, 1
7.007743, 1, 1
7.007769, 0, 1
7.008004, 1, 1
7.008030, 0, 1
7.008264, 1, 1
7.008291, 0, 1
7.008525, 1, 1
7.008551, 0, 1
7.008786, 1, 1
7.008812, 0, 1
7.009046, 1, 1
7.009072, 0, 1
7.009307, 1, 1
7.009333, 0, 1
7.009567, 1, 1
7.009593, 0, 1
7.009828, 1, 1
7.026581, 0, 1
7.026815, 1, 1
7.026841, 0, 1
7.027076, 1, 1
7.027102, 0, 1
7.027336, 1, 1
7.027362, 0, 1
7.027597, 1, 1
7.027623, 0, 1
7.027858, 1, 1
7.027884, 0, 1
7.028118, 1, 1
7.028144, 0, 1
7.028379, 1, 1
7.028405, 0, 1
7.028639, 1, 1
7.028665, 0, 1
7.028900, 1, 1
7.028926, 0, 1
7.029160, 1, 1
7.029186, 0, 1
7.029421, 1, 1
7.029447, 0, 1
7.029681, 1, 1
7.029707, 0, 1
7.029942, 1, 1
7.029968, 0, 1
7.030202, 1, 1
7.030228, 0, 1
7.030463, 1, 1
7.030489, 0, 1
7.030724, 1, 1
7.047685, 0, 1
7.047920, 1, 1
7.047946, 0, 1
7.048180, 1, 1
7.048206, 0, 1
7.048441, 1, 1
7.048467, 0, 1
7.048701, 1, 1
7.048727, 0, 1
7.048962, 1, 1
7.048988, 0, 1
7.049222, 1, 1
7.049248, 0, 1
7.049483, 1, 1
7.049509, 0, 1
7.049743, 1, 1
7.049769, 0, 1
7.050004, 1, 1
7.050030, 0, 1
7.050264, 1, 1
7.050291, 0, 1
7.050525, 1, 1
7.050551, 0, 1
7.050786, 1, 1
7.050812, 0, 1
7.051046, 1, 1
7.051072, 0, 1
7.051307, 1, 1
7.051333, 0, 1
7.051567, 1, 1
7.051593, 0, 1
7.051828, 1, 1
7.068607, 0, 1
7.068841, 1, 1
7.068867, 0, 1
7.069102, 1, 1
7.069128, 0, 1
7.069362, 1, 1
7.069389, 0, 1
7.069623, 1, 1
7.069649, 0, 1
7.069884, 1, 1
7.069910, 0, 1
7.070144, 1, 1
7.070170, 0, 1
7.070405, 1, 1
7.070431, 0, 1
7.070665, 1, 1
7.070691, 0, 1
7.070926, 1, 1
7.070952, 0, 1
7.071186, 1, 1
7.071212, 0, 1
7.071447, 1, 1
7.071473, 0, 1
7.071707, 1, 1
7.071733, 0, 1
7.071968, 1, 1
7.071994, 0, 1
7.072228, 1, 1
7.072255, 0, 1
7.072489, 1, 1
7.072515, 0, 1
7.072750, 1, 1
7.089607, 0, 1
7.089841, 1, 1
7.089867, 0, 1
7.090102, 1, 1
7.090128, 0, 1
7.090362, 1, 1
7.090389, 0, 1
7.090623, 1, 1
7.090649, 0, 1
7.090884, 1, 1
7.090910, 0, 1
7.091144, 1, 1
7.091170, 0, 1
7.091405, 1, 1
7.091431, 0, 1
7.091665, 1, 1
7.091691, 0, 1
7.091926, 1, 1
7.091952, 0, 1
7.092186, 1, 1
7.092212, 0, 1
7.092447, 1, 1
7.092473, 0, 1
7.092707, 1, 1
7.092733, 0, 1
7.092968, 1, 1
7.092994, 0, 1
7.093228, 1, 1
7.093255, 0, 1
7.093489, 1, 1
7.093515, 0, 1
7.093750, 1, 1
7.110607, 0, 1
7.110841, 1, 1
7.110867, 0, 1
7.111102, 1, 1
7.111128, 0, 1
7.111363, 1, 1
7.111389, 0, 1
7.111623, 1, 1
7.111649, 0, 1
7.111884, 1, 1
7.111910, 0, 1
7.112144, 1, 1
7.112170, 0, 1
7.112405, 1, 1
7.112431, 0, 1
7.112665, 1, 1
7.112691, 0, 1
7.112926, 1, 1
7.112952, 0, 1
7.113186, 1, 1
7.113212, 0, 1
7.113447, 1, 1
7.113473, 0, 1
7.113707, 1, 1
7.113733, 0, 1
7.113968, 1, 1
7.113994, 0, 1
7.114229, 1, 1
7.114255, 0, 1
7.114489, 1, 1
7.114515, 0, 1
7.114750, 1, 1
7.131607, 0, 1
7.131841, 1, 1
7.131867, 0, 1
7.132102, 1, 1
7.132128, 0, 1
7.132363, 1, 1
7.132389, 0, 1
7.132623, 1, 1
7.132649, 0, 1
7.132884, 1, 1
7.132910, 0, 1
7.133144, 1, 1
7.133170, 0, 1
7.133405, 1, 1
7.133431, 0, 1
7.133665, 1, 1
7.133691, 0, 1
7.133926, 1, 1
7.133952, 0, 1
7.134186, 1, 1
7.134212, 0, 1
7.134447, 1, 1
7.134473, 0, 1
7.134707, 1, 1
7.134733, 0, 1
7.134968, 1, 1
7.134994, 0, 1
7.135229, 1, 1
7.135255, 0, 1
7.135489, 1, 1
7.135515, 0, 1
7.135750, 1, 1
7.152685, 0, 1
7.152920, 1, 1
7.152946, 0, 1
7.153180, 1, 1
7.153206, 0, 1
7.153441, 1, 1
7.153467, 0, 1
7.153701, 1, 1
7.153727, 0, 1
7.153962, 1, 1
7.153988, 0, 1
7.154222, 1, 1
7.154248, 0, 1
7.154483, 1, 1
7.154509, 0, 1
7.154743, 1, 1
7.154769, 0, 1
7.155004, 1, 1
7.155030, 0, 1
7.155264, 1, 1
7.155291, 0, 1
7.155525, 1, 1
7.155551, 0, 1
7.155786, 1, 1
7.155812, 0, 1
7.156046, 1, 1
7.156072, 0, 1
7.156307, 1, 1
7.156333, 0, 1
7.156567, 1, 1
7.156593, 0, 1
7.156828, 1, 1
7.173581, 0, 1
7.173815, 1, 1
7.173841, 0, 1
7.174076, 1, 1
7.174102, 0, 1
7.174336, 1, 1
7.174363, 0, 1
7.174597, 1, 1
7.174623, 0, 1
7.174858, 1, 1
7.174884, 0, 1
7.175118, 1, 1
7.175144, 0, 1
7.175379, 1, 1
7.175405, 0, 1
7.175639, 1, 1
7.175665, 0, 1
7.175900, 1, 1
7.175926, 0, 1
7.176160, 1, 1
7.176186, 0, 1
7.176421, 1, 1
7.176447, 0, 1
7.176681, 1, 1
7.176707, 0, 1
7.176942, 1, 1
7.176968, 0, 1
7.177202, 1, 1
7.177229, 0, 1
7.177463, 1, 1
7.177489, 0, 1
7.177724, 1, 1
7.194581, 0, 1
7.194815, 1, 1
7.194841, 0, 1
7.195076, 1, 1
7.195102, 0, 1
7.195336, 1, 1
7.195363, 0, 1
7.195597, 1, 1
7.195623, 0, 1
7.195858, 1, 1
7.195884, 0, 1
7.196118, 1, 1
7.196144, 0, 1
7.196379, 1, 1
7.196405, 0, 1
7.196639, 1, 1
7.196665, 0, 1
7.196900, 1, 1
7.196926, 0, 1
7.197160, 1, 1
7.197186, 0, 1
7.197421, 1, 1
7.197447, 0, 1
7.197681, 1, 1
7.197707, 0, 1
7.197942, 1, 1
7.197968, 0, 1
7.198202, 1, 1
7.198229, 0, 1
7.198463, 1, 1
7.198489, 0, 1
7.198724, 1, 1
7.215607, 0, 1
7.215841, 1, 1
7.215867, 0, 1
7.216102, 1, 1
7.216128, 0, 1
7.216363, 1, 1
7.216389, 0, 1
7.216623, 1, 1
7.216649, 0, 1
7.216884, 1, 1
7.216910, 0, 1
7.217144, 1, 1
7.217170, 0, 1
7.217405, 1, 1
7.217431, 0, 1
7.217665, 1, 1
7.217691, 0, 1
7.217926, 1, 1
7.217952, 0, 1
7.218186, 1, 1
7.218212, 0, 1
7.218447, 1, 1
7.218473, 0, 1
7.218707, 1, 1
7.218733, 0, 1
7.218968, 1, 1
7.218994, 0, 1
7.219229, 1, 1
7.219255, 0, 1
7.219489, 1, 1
7.219515, 0, 1
7.219750, 1, 1
7.236607, 0, 1
7.236841, 1, 1
7.236867, 0, 1
7.237102, 1, 1
7.237128, 0, 1
7.237363, 1, 1
7.237389, 0, 1
7.237623, 1, 1
7.237649, 0, 1
7.237884, 1, 1
7.237910, 0, 1
7.238144, 1, 1
7.238170, 0, 1
7.238405, 1, 1
7.238431, 0, 1
7.238665, 1, 1
7.238691, 0, 1
7.238926, 1, 1
7.238952, 0, 1
7.239186, 1, 1
7.239212, 0, 1
7.239447, 1, 1
7.239473, 0, 1
7.239707, 1, 1
7.239733, 0, 1
7.239968, 1, 1
7.239994, 0, 1
7.240229, 1, 1
7.240255, 0, 1
7.240489, 1, 1
7.240515, 0, 1
7.240750, 1, 1
7.257607, 0, 1
7.257841, 1, 1
7.257867, 0, 1
7.258102, 1, 1
7.258128, 0, 1
7.258363, 1, 1
7.258389, 0, 1
7.258623, 1, 1
7.258649, 0, 1
7.258884, 1, 1
7.258910, 0, 1
7.259144, 1, 1
7.259170, 0, 1
7.259405, 1, 1
7.259431, 0, 1
7.259665, 1, 1
7.259691, 0, 1
7.259926, 1, 1
7.259952, 0, 1
7.260186, 1, 1
7.260212, 0, 1
7.260447, 1, 1
7.260473, 0, 1
7.260707, 1, 1
7.260733, 0, 1
7.260968, 1, 1
7.260994, 0, 1
7.261229, 1, 1
7.261255, 0, 1
7.261489, 1, 1
7.261515, 0, 1
7.261750, 1, 1
7.278607, 0, 1
7.278841, 1, 1
7.278867, 0, 1
7.279102, 1, 1
7.279128, 0, 1
7.279363, 1, 1
7.279389, 0, 1
7.279623, 1, 1
7.279649, 0, 1
7.279884, 1, 1
7.279910, 0, 1
7.280144, 1, 1
7.280170, 0, 1
7.280405, 1, 1
7.280431, 0, 1
7.280665, 1, 1
7.280691, 0, 1
7.280926, 1, 1
7.280952, 0, 1
7.281186, 1, 1
7.281212, 0, 1
7.281447, 1, 1
7.281473, 0, 1
7.281707, 1, 1
7.281733, 0, 1
7.281968, 1, 1
7.281994, 0, 1
7.282229, 1, 1
7.282255, 0, 1
7.282489, 1, 1
7.282515, 0, 1
7.282750, 1, 1
7.299711, 0, 1
7.299946, 1, 1
7.299972, 0, 1
7.300206, 1, 1
7.300232, 0, 1
7.300467, 1, 1
7.300493, 0, 1
7.300727, 1, 1
7.300753, 0, 1
7.300988, 1, 1
7.301014, 0, 1
7.301248, 1, 1
7.301274, 0, 1
7.301509, 1, 1
7.301535, 0, 1
7.301769, 1, 1
7.301796, 0, 1
7.302030, 1, 1
7.302056, 0, 1
7.302291, 1, 1
7.302317, 0, 1
7.302551, 1, 1
7.302577, 0, 1
7.302812, 1, 1
7.302838, 0, 1
7.303072, 1, 1
7.303098, 0, 1
7.303333, 1, 1
7.303359, 0, 1
7.303593, 1, 1
7.303619, 0, 1
7.303854, 1, 1
7.320581, 0, 1
7.320815, 1, 1
7.320841, 0, 1
7.321076, 1, 1
7.321102, 0, 1
7.321336, 1, 1
7.321363, 0, 1
7.321597, 1, 1
7.321623, 0, 1
7.321858, 1, 1
7.321884, 0, 1
7.322118, 1, 1
7.322144, 0, 1
7.322379, 1, 1
7.322405, 0, 1
7.322639, 1, 1
7.322665, 0, 1
7.322900, 1, 1
7.322926, 0, 1
7.323160, 1, 1
7.323186, 0, 1
7.323421, 1, 1
7.323447, 0, 1
7.323681, 1, 1
7.323707, 0, 1
7.323942, 1, 1
7.323968, 0, 1
7.324202, 1, 1
7.324229, 0, 1
7.324463, 1, 1
7.324489, 0, 1
7.324724, 1, 1
7.341711, 0, 1
7.341946, 1, 1
7.341972, 0, 1
7.342206, 1, 1
7.342232, 0, 1
7.342467, 1, 1
7.342493, 0, 1
7.342727, 1, 1
7.342753, 0, 1
7.342988, 1, 1
7.343014, 0, 1
7.343248, 1, 1
7.343274, 0, 1
7.343509, 1, 1
7.343535, 0, 1
7.343769, 1, 1
7.343796, 0, 1
7.344030, 1, 1
7.344056, 0, 1
7.344291, 1, 1
7.344317, 0, 1
7.344551, 1, 1
7.344577, 0, 1
7.344812, 1, 1
7.344838, 0, 1
7.345072, 1, 1
7.345098, 0, 1
7.345333, 1, 1
7.345359, 0, 1
7.345593, 1, 1
7.345619, 0, 1
7.345854, 1, 1
7.442751, 0, 1
7.442777, 1, 1
7.442803, 0, 1
7.442985, 1, 1
7.443011, 0, 1
7.443037, 1, 1
7.443064, 0, 1
7.443090, 1, 1
7.443116, 0, 1
7.443246, 1, 1
7.443272, 0, 1
7.443298, 1, 1
7.443324, 0, 1
7.443428, 1, 1
7.443454, 0, 1
7.443506, 1, 1
7.443533, 0, 1
7.443767, 1, 1
7.443793, 0, 1
7.443845, 1, 1
7.443871, 0, 1
7.443949, 1, 1
7.443975, 0, 1
7.444028, 1, 1
7.444054, 0, 1
7.444158, 1, 1
7.444184, 0, 1
7.444236, 1, 1
7.444262, 0, 1
7.444288, 1, 1
7.491424, 1, 0
7.491450, 1, 1
7.491476, 1, 0
7.491658, 1, 1
7.491684, 1, 0
7.491762, 1, 1
7.491788, 1, 0
7.491918, 1, 1
7.491944, 1, 0
7.491970, 1, 1
7.491996, 1, 0
7.492100, 1, 1
7.492126, 1, 0
7.492152, 1, 1
7.492204, 1, 0
7.492438, 1, 1
7.492464, 1, 0
7.492490, 1, 1
7.492516, 1, 0
7.492542, 1, 1
7.492568, 1, 0
7.492620, 1, 1
7.492646, 1, 0
7.492672, 1, 1
7.541813, 1, 0
7.541839, 1, 1
7.541865, 1, 0
7.542047, 1, 1
7.542073, 1, 0
7.542125, 1, 1
7.542151, 1, 0
7.542177, 1, 1
7.542203, 1, 0
7.542307, 1, 1
7.542333, 1, 0
7.542489, 1, 1
7.542515, 1, 0
7.542567, 1, 1
7.542593, 1, 0
7.542827, 1, 1
7.542853, 1, 0
7.542931, 1, 1
7.542957, 1, 0
7.542983, 1, 1
7.543009, 1, 0
7.543087, 1, 1
7.543113, 1, 0
7.543217, 1, 1
7.543243, 1, 0
7.543321, 1, 1
7.543373, 1, 0
7.543399, 1, 1
7.543425, 1, 0
7.543451, 1, 1
7.543477, 1, 0
7.543607, 1, 1
7.543633, 1, 0
7.543659, 1, 1
7.543893, 1, 0
7.543919, 1, 1
7.544153, 1, 0
7.544387, 1, 1
7.544413, 1, 0
7.544439, 1, 1
7.544465, 1, 0
7.544517, 1, 1
7.544543, 1, 0
7.544595, 1, 1
7.592409, 1, 0
7.592435, 1, 1
7.592461, 1, 0
7.592643, 1, 1
7.592669, 1, 0
7.592747, 1, 1
7.592773, 1, 0
7.592799, 1, 1
7.592825, 1, 0
7.592903, 1, 1
7.592929, 1, 0
7.592981, 1, 1
7.593007, 1, 0
7.593085, 1, 1
7.593111, 1, 0
7.593163, 1, 1
7.593189, 1, 0
7.593423, 1, 1
7.593449, 1, 0
7.593475, 1, 1
7.593501, 1, 0
7.593527, 1, 1
7.593553, 1, 0
7.593631, 1, 1
7.593657, 1, 0
7.593683, 1, 1
7.593709, 1, 0
7.593761, 1, 1
7.593787, 1, 0
7.593839, 1, 1
7.593865, 1, 0
7.593943, 1, 1
7.593969, 1, 0
7.594047, 1, 1
7.594073, 1, 0
7.594151, 1, 1
7.594177, 1, 0
7.594203, 1, 1
7.594229, 1, 0
7.594255, 1, 1
7.594281, 1, 0
7.594333, 1, 1
7.594385, 1, 0
7.594463, 1, 1
7.594489, 1, 0
7.594723, 1, 1
7.594749, 1, 0
7.594801, 1, 1
7.594879, 1, 0
7.594905, 1, 1
7.595009, 1, 0
7.595243, 1, 1
7.595269, 1, 0
7.595503, 1, 1
7.595529, 1, 0
7.595763, 1, 1
7.595789, 1, 0
7.595815, 1, 1
7.595841, 1, 0
7.595867, 1, 1
7.595893, 1, 0
7.596023, 1, 1
7.596881, 1, 0
7.596933, 1, 1
7.596959, 1, 0
7.596985, 1, 1
7.597141, 1, 0
7.597167, 1, 1
7.597401, 1, 0
7.597427, 1, 1
7.597661, 1, 0
7.597791, 1, 1
7.597817, 1, 0
7.597869, 1, 1
7.597921, 1, 0
7.597947, 1, 1
7.597973, 1, 0
7.598155, 1, 1
7.598181, 1, 0
7.598415, 1, 1
7.598441, 1, 0
7.598493, 1, 1
7.598545, 1, 0
7.598597, 1, 1
7.598649, 1, 0
7.598675, 1, 1
12.249929, 0, 1
12.249955, 1, 1
12.249981, 0, 1
12.250163, 1, 1
12.250189, 0, 1
12.250215, 1, 1
12.250241, 0, 1
12.250267, 1, 1
12.250294, 0, 1
12.250424, 1, 1
12.250450, 0, 1
12.250476, 1, 1
12.250502, 0, 1
12.250606, 1, 1
12.250632, 0, 1
12.250684, 1, 1
12.250710, 0, 1
12.250945, 1, 1
12.250971, 0, 1
12.251023, 1, 1
12.251049, 0, 1
12.251127, 1, 1
12.251153, 0, 1
12.251205, 1, 1
12.251232, 0, 1
12.251336, 1, 1
12.251362, 0, 1
12.251414, 1, 1
12.251440, 0, 1
12.251466, 1, 1
12.283789, 1, 0
12.283815, 1, 1
12.283841, 1, 0
12.284023, 1, 1
12.284049, 1, 0
12.284127, 1, 1
12.284153, 1, 0
12.284283, 1, 1
12.284309, 1, 0
12.284335, 1, 1
12.284361, 1, 0
12.284465, 1, 1
12.284491, 1, 0
12.284517, 1, 1
12.284569, 1, 0
12.284803, 1, 1
12.284829, 1, 0
12.284855, 1, 1
12.284881, 1, 0
12.284907, 1, 1
12.284933, 1, 0
12.284985, 1, 1
12.285011, 1, 0
12.285037, 1, 1
12.333944, 1, 0
12.333970, 1, 1
12.333996, 1, 0
12.334178, 1, 1
12.334204, 1, 0
12.334256, 1, 1
12.334282, 1, 0
12.334308, 1, 1
12.334334, 1, 0
12.334438, 1, 1
12.334464, 1, 0
12.334620, 1, 1
12.334646, 1, 0
12.334698, 1, 1
12.334724, 1, 0
12.334958, 1, 1
12.334984, 1, 0
12.335062, 1, 1
12.335088, 1, 0
12.335114, 1, 1
12.335140, 1, 0
12.335218, 1, 1
12.335244, 1, 0
12.335348, 1, 1
12.335374, 1, 0
12.335452, 1, 1
12.335504, 1, 0
12.335530, 1, 1
12.335556, 1, 0
12.335582, 1, 1
12.335608, 1, 0
12.335738, 1, 1
12.335764, 1, 0
12.335790, 1, 1
12.336024, 1, 0
12.336050, 1, 1
12.336284, 1, 0
12.336518, 1, 1
12.336544, 1, 0
12.336570, 1, 1
12.336596, 1, 0
12.336648, 1, 1
12.336674, 1, 0
12.336726, 1, 1
12.385138, 1, 0
12.385164, 1, 1
12.385190, 1, 0
12.385372, 1, 1
12.385398, 1, 0
12.385476, 1, 1
12.385502, 1, 0
12.385528, 1, 1
12.385554, 1, 0
12.385632, 1, 1
12.385658, 1, 0
12.385710, 1, 1
12.385736, 1, 0
12.385814, 1, 1
12.385840, 1, 0
12.385892, 1, 1
12.385918, 1, 0
12.386152, 1, 1
12.386178, 1, 0
12.386204, 1, 1
12.386230, 1, 0
12.386256, 1, 1
12.386282, 1, 0
12.386360, 1, 1
12.386386, 1, 0
12.386412, 1, 1
12.386438, 1, 0
12.386490, 1, 1
12.386516, 1, 0
12.386568, 1, 1
12.386594, 1, 0
12.386672, 1, 1
12.386698, 1, 0
12.386776, 1, 1
12.386802, 1, 0
12.386880, 1, 1
12.386906, 1, 0
12.386932, 1, 1
12.386958, 1, 0
12.386984, 1, 1
12.387010, 1, 0
12.387062, 1, 1
12.387114, 1, 0
12.387192, 1, 1
12.387218, 1, 0
12.387452, 1, 1
12.387478, 1, 0
12.387530, 1, 1
12.387608, 1, 0
12.387634, 1, 1
12.387738, 1, 0
12.387972, 1, 1
12.387998, 1, 0
12.388232, 1, 1
12.388258, 1, 0
12.388492, 1, 1
12.388518, 1, 0
12.388544, 1, 1
12.388570, 1, 0
12.388596, 1, 1
12.388622, 1, 0
12.388752, 1, 1
12.388778, 1, 0
12.388830, 1, 1
12.388856, 1, 0
12.388882, 1, 1
12.389038, 1, 0
12.389064, 1, 1
12.389298, 1, 0
12.389324, 1, 1
12.389558, 1, 0
12.389688, 1, 1
12.389714, 1, 0
12.389766, 1, 1
12.389818, 1, 0
12.389844, 1, 1
12.389870, 1, 0
12.390052, 1, 1
12.390078, 1, 0
12.390312, 1, 1
12.390338, 1, 0
12.390390, 1, 1
12.390442, 1, 0
12.390494, 1, 1
12.390546, 1, 0
12.390572, 1, 1
15.016447, 0, 1
15.016450, 1, 1
15.016453, 0, 1
15.016610, 1, 1
15.018442, 0, 1
15.018444, 1, 1
15.018453, 0, 1
15.018454, 1, 1
15.018460, 0, 1
15.018461, 1, 1
15.018482, 0, 1
15.018487, 1, 1
15.018492, 0, 1
15.018499, 1, 1
15.018502, 0, 1
15.018507, 1, 1
15.018515, 0, 1
15.018517, 1, 1
15.018524, 0, 1
15.018526, 1, 1
15.018534, 0, 1
15.018535, 1, 1
15.018556, 0, 1
15.018557, 1, 1
15.018558, 0, 1
15.018559, 1, 1
15.018571, 0, 1
15.018573, 1, 1
15.018582, 0, 1
15.018586, 1, 1
15.018592, 0, 1
15.018595, 1, 1
15.018601, 0, 1
15.018604, 1, 1
15.018611, 0, 1
15.018616, 1, 1
15.018622, 0, 1
15.018627, 1, 1
15.018628, 0, 1
15.018629, 1, 1
15.018634, 0, 1
15.018638, 1, 1
15.018639, 0, 1
15.018640, 1, 1
15.018645, 0, 1
15.018650, 1, 1
15.018651, 0, 1
15.018653, 1, 1
15.018660, 0, 1
15.018667, 1, 1
15.018670, 0, 1
15.018671, 1, 1
15.018672, 0, 1
15.018673, 1, 1
15.018679, 0, 1
15.018686, 1, 1
15.018690, 0, 1
15.018693, 1, 1
15.018699, 0, 1
15.018706, 1, 1
15.018711, 0, 1
15.018717, 1, 1
15.018718, 0, 1
15.018724, 1, 1
15.018729, 0, 1
15.018734, 1, 1
15.018735, 0, 1
15.018743, 1, 1
15.018747, 0, 1
15.018755, 1, 1
15.018757, 0, 1
15.018767, 1, 1
15.018768, 0, 1
15.018862, 1, 1
15.018863, 0, 1
15.018900, 1, 1
15.018901, 0, 1
15.018910, 1, 1
15.018911, 0, 1
15.018922, 1, 1
15.018924, 0, 1
15.018933, 1, 1
15.018934, 0, 1
15.018935, 1, 1
15.018936, 0, 1
15.018951, 1, 1
15.018959, 0, 1
15.018960, 1, 1
15.019148, 0, 1
15.019152, 1, 1
15.019168, 0, 1
15.019170, 1, 1
15.019171, 0, 1
15.019172, 1, 1
15.019185, 0, 1
15.019186, 1, 1
15.019194, 0, 1
15.019195, 1, 1
15.019204, 0, 1
15.019213, 1, 1
15.019801, 0, 1
15.019803, 1, 1
15.019809, 0, 1
15.020018, 1, 1
15.020023, 0, 1
15.020026, 1, 1
15.022725, 0, 1
15.022730, 1, 1
15.022731, 0, 1
15.023112, 0, 0
15.023115, 0, 1
15.023119, 0, 0
15.027927, 0, 1
15.027928, 1, 1
15.032209, 0, 1
15.032212, 1, 1
15.032216, 0, 1
15.032642, 0, 0
15.032645, 0, 1
15.032649, 0, 0
15.032653, 0, 1
15.032656, 0, 0
15.033911, 0, 1
15.033913, 1, 1
15.077321, 0, 1
15.077323, 1, 1
15.077325, 0, 1
15.077326, 1, 1
15.077332, 0, 1
15.077336, 1, 1
15.077340, 0, 1
15.078616, 0, 0
15.078617, 0, 1
15.078623, 0, 0
15.078628, 0, 1
15.078633, 0, 0
15.078637, 0, 1
15.078639, 0, 0
15.078640, 0, 1
15.078642, 0, 0
15.078661, 0, 1
15.078662, 0, 0
15.083270, 0, 1
15.083271, 1, 1
15.124794, 0, 1
15.124796, 1, 1
15.124801, 0, 1
15.124803, 1, 1
15.124804, 0, 1
15.124810, 1, 1
15.124813, 0, 1
15.126099, 0, 0
15.126101, 0, 1
15.126110, 0, 0
15.126114, 0, 1
15.126120, 0, 0
15.126125, 0, 1
15.126129, 0, 0
15.163237, 0, 1
15.163238, 1, 1
15.453200, 0, 1
15.453622, 0, 0
15.453624, 0, 1
15.453629, 0, 0
15.453634, 0, 1
15.453638, 0, 0
15.519935, 0, 1
15.519937, 1, 1
15.527804, 0, 1
15.527806, 1, 1
15.527814, 0, 1
15.527815, 1, 1
15.527816, 0, 1
15.528174, 1, 1
15.539163, 0, 1
15.539167, 1, 1
15.539169, 0, 1
15.539175, 1, 1
15.539179, 0, 1
15.539600, 0, 0
