Time[s], Channel 0, Channel 1
0.000000, 1, 1
0.903788, 0, 1
0.903814, 1, 1
0.903840, 0, 1
0.904023, 1, 1
0.904049, 0, 1
0.904075, 1, 1
0.904101, 0, 1
0.904127, 1, 1
0.904153, 0, 1
0.904283, 1, 1
0.904309, 0, 1
0.904335, 1, 1
0.904361, 0, 1
0.904465, 1, 1
0.904492, 0, 1
0.904544, 1, 1
0.904570, 0, 1
0.904804, 1, 1
0.904830, 0, 1
0.904882, 1, 1
0.904908, 0, 1
0.904987, 1, 1
0.905013, 0, 1
0.905065, 1, 1
0.905091, 0, 1
0.905195, 1, 1
0.905221, 0, 1
0.905273, 1, 1
0.905299, 0, 1
0.905325, 1, 1
0.946391, 1, 0
0.946417, 1, 1
0.946443, 1, 0
0.946625, 1, 1
0.946651, 1, 0
0.946729, 1, 1
0.946755, 1, 0
0.946885, 1, 1
0.946911, 1, 0
0.946937, 1, 1
0.946963, 1, 0
0.947067, 1, 1
0.947093, 1, 0
0.947119, 1, 1
0.947171, 1, 0
0.947405, 1, 1
0.947431, 1, 0
0.947457, 1, 1
0.947483, 1, 0
0.947509, 1, 1
0.947535, 1, 0
0.947587, 1, 1
0.947613, 1, 0
0.947639, 1, 1
0.996624, 1, 0
0.996650, 1, 1
0.996676, 1, 0
0.996858, 1, 1
0.996884, 1, 0
0.996936, 1, 1
0.996962, 1, 0
0.996988, 1, 1
0.997014, 1, 0
0.997118, 1, 1
0.997144, 1, 0
0.997300, 1, 1
0.997326, 1, 0
0.997378, 1, 1
0.997404, 1, 0
0.997638, 1, 1
0.997664, 1, 0
0.997716, 1, 1
0.997742, 1, 0
0.997794, 1, 1
0.997820, 1, 0
0.997898, 1, 1
0.997924, 1, 0
0.998028, 1, 1
0.998054, 1, 0
0.998106, 1, 1
0.998132, 1, 0
0.998158, 1, 1
0.998184, 1, 0
0.998418, 1, 1
0.998444, 1, 0
0.998470, 1, 1
0.998496, 1, 0
0.998574, 1, 1
0.998600, 1, 0
0.998652, 1, 1
0.998704, 1, 0
0.998730, 1, 1
0.998756, 1, 0
0.998938, 1, 1
0.998964, 1, 0
0.999198, 1, 1
0.999224, 1, 0
0.999276, 1, 1
0.999328, 1, 0
0.999354, 1, 1
0.999380, 1, 0
0.999458, 1, 1
1.047714, 1, 0
1.047740, 1, 1
1.047766, 1, 0
1.047948, 1, 1
1.047974, 1, 0
1.048052, 1, 1
1.048078, 1, 0
1.048104, 1, 1
1.048130, 1, 0
1.048208, 1, 1
1.048234, 1, 0
1.048286, 1, 1
1.048312, 1, 0
1.048390, 1, 1
1.048416, 1, 0
1.048468, 1, 1
1.049404, 1, 0
1.049638, 1, 1
1.049664, 1, 0
1.049690, 1, 1
1.049716, 1, 0
1.049742, 1, 1
1.049768, 1, 0
1.049846, 1, 1
1.049872, 1, 0
1.049898, 1, 1
1.049924, 1, 0
1.049976, 1, 1
1.050002, 1, 0
1.050054, 1, 1
1.050080, 1, 0
1.050158, 1, 1
1.050184, 1, 0
1.050262, 1, 1
1.050288, 1, 0
1.050366, 1, 1
1.050392, 1, 0
1.050418, 1, 1
1.050444, 1, 0
1.050470, 1, 1
1.050496, 1, 0
1.050548, 1, 1
1.050600, 1, 0
1.050678, 1, 1
1.050704, 1, 0
1.050938, 1, 1
1.050964, 1, 0
1.051016, 1, 1
1.051068, 1, 0
1.051094, 1, 1
1.051120, 1, 0
1.051146, 1, 1
1.051224, 1, 0
1.051458, 1, 1
1.051484, 1, 0
1.051718, 1, 1
1.051744, 1, 0
1.051978, 1, 1
1.052004, 1, 0
1.052238, 1, 1
1.052264, 1, 0
1.052316, 1, 1
1.052342, 1, 0
1.052368, 1, 1
1.052524, 1, 0
1.052550, 1, 1
1.052576, 1, 0
1.052654, 1, 1
1.052680, 1, 0
1.052732, 1, 1
1.052784, 1, 0
1.052810, 1, 1
1.052836, 1, 0
1.053018, 1, 1
1.053044, 1, 0
1.053174, 1, 1
1.053200, 1, 0
1.053252, 1, 1
1.053304, 1, 0
1.053330, 1, 1
1.053356, 1, 0
1.053538, 1, 1
1.053564, 1, 0
1.053798, 1, 1
1.053824, 1, 0
1.053850, 1, 1
1.053876, 1, 0
1.053902, 1, 1
1.053980, 1, 0
1.054006, 1, 1
2.296799, 0, 1
2.296825, 1, 1
2.296851, 0, 1
2.297033, 1, 1
2.297059, 0, 1
2.297137, 1, 1
2.297189, 0, 1
2.297294, 1, 1
2.297320, 0, 1
2.297424, 1, 1
2.297528, 0, 1
2.297554, 1, 1
2.297580, 0, 1
2.297632, 1, 1
2.297658, 0, 1
2.297815, 1, 1
2.297841, 0, 1
2.297867, 1, 1
2.297893, 0, 1
2.298075, 1, 1
2.298101, 0, 1
2.298127, 1, 1
2.298154, 0, 1
2.298180, 1, 1
2.298206, 0, 1
2.298336, 1, 1
2.298362, 0, 1
2.298388, 1, 1
2.298440, 0, 1
2.298570, 1, 1
2.298622, 0, 1
2.298649, 1, 1
2.298675, 0, 1
2.298701, 1, 1
2.298727, 0, 1
2.298779, 1, 1
2.298805, 0, 1
2.298857, 1, 1
2.298883, 0, 1
2.299118, 1, 1
2.299144, 0, 1
2.299222, 1, 1
2.299248, 0, 1
2.299378, 1, 1
2.299404, 0, 1
2.299430, 1, 1
2.299456, 0, 1
2.299534, 1, 1
2.299587, 0, 1
2.299613, 1, 1
2.299665, 0, 1
2.299743, 1, 1
2.299769, 0, 1
2.299899, 1, 1
2.299925, 0, 1
2.299951, 1, 1
2.299977, 0, 1
2.300003, 1, 1
2.300055, 0, 1
2.300082, 1, 1
2.496768, 0, 1
2.497002, 1, 1
2.497028, 0, 1
2.497263, 1, 1
2.497289, 0, 1
2.497523, 1, 1
2.497549, 0, 1
2.497784, 1, 1
2.497810, 0, 1
2.498045, 1, 1
2.498071, 0, 1
2.498305, 1, 1
2.498331, 0, 1
2.498566, 1, 1
2.498592, 0, 1
2.498826, 1, 1
2.498852, 0, 1
2.499087, 1, 1
2.499113, 0, 1
2.499347, 1, 1
2.499373, 0, 1
2.499608, 1, 1
2.499634, 0, 1
2.499868, 1, 1
2.499894, 0, 1
2.500129, 1, 1
2.500155, 0, 1
2.500389, 1, 1
2.500415, 0, 1
2.500650, 1, 1
2.500676, 0, 1
2.500911, 1, 1
2.517898, 0, 1
2.518133, 1, 1
2.518159, 0, 1
2.518393, 1, 1
2.518419, 0, 1
2.518654, 1, 1
2.518680, 0, 1
2.518914, 1, 1
2.518940, 0, 1
2.519175, 1, 1
2.519201, 0, 1
2.519435, 1, 1
2.519461, 0, 1
2.519696, 1, 1
2.519722, 0, 1
2.519956, 1, 1
2.519982, 0, 1
2.520217, 1, 1
2.520243, 0, 1
2.520478, 1, 1
2.520504, 0, 1
2.520738, 1, 1
2.520764, 0, 1
2.520999, 1, 1
2.521025, 0, 1
2.521259, 1, 1
2.521285, 0, 1
2.521520, 1, 1
2.521546, 0, 1
2.521780, 1, 1
2.521806, 0, 1
2.522041, 1, 1
2.538898, 0, 1
2.539133, 1, 1
2.539159, 0, 1
2.539393, 1, 1
2.539419, 0, 1
2.539654, 1, 1
2.539680, 0, 1
2.539914, 1, 1
2.539940, 0, 1
2.540175, 1, 1
2.540201, 0, 1
2.540435, 1, 1
2.540461, 0, 1
2.540696, 1, 1
2.540722, 0, 1
2.540956, 1, 1
2.540983, 0, 1
2.541217, 1, 1
2.541243, 0, 1
2.541478, 1, 1
2.541504, 0, 1
2.541738, 1, 1
2.541764, 0, 1
2.541999, 1, 1
2.542025, 0, 1
2.542259, 1, 1
2.542285, 0, 1
2.542520, 1, 1
2.542546, 0, 1
2.542780, 1, 1
2.542806, 0, 1
2.543041, 1, 1
2.559794, 0, 1
2.560028, 1, 1
2.560054, 0, 1
2.560289, 1, 1
2.560315, 0, 1
2.560550, 1, 1
2.560576, 0, 1
2.560810, 1, 1
2.560836, 0, 1
2.561071, 1, 1
2.561097, 0, 1
2.561331, 1, 1
2.561357, 0, 1
2.561592, 1, 1
2.561618, 0, 1
2.561852, 1, 1
2.561878, 0, 1
2.562113, 1, 1
2.562139, 0, 1
2.562373, 1, 1
2.562399, 0, 1
2.562634, 1, 1
2.562660, 0, 1
2.562894, 1, 1
2.562920, 0, 1
2.563155, 1, 1
2.563181, 0, 1
2.563416, 1, 1
2.563442, 0, 1
2.563676, 1, 1
2.563702, 0, 1
2.563937, 1, 1
2.580898, 0, 1
2.581133, 1, 1
2.581159, 0, 1
2.581393, 1, 1
2.581419, 0, 1
2.581654, 1, 1
2.581680, 0, 1
2.581914, 1, 1
2.581940, 0, 1
2.582175, 1, 1
2.582201, 0, 1
2.582435, 1, 1
2.582461, 0, 1
2.582696, 1, 1
2.582722, 0, 1
2.582957, 1, 1
2.582983, 0, 1
2.583217, 1, 1
2.583243, 0, 1
2.583478, 1, 1
2.583504, 0, 1
2.583738, 1, 1
2.583764, 0, 1
2.583999, 1, 1
2.584025, 0, 1
2.584259, 1, 1
2.584285, 0, 1
2.584520, 1, 1
2.584546, 0, 1
2.584780, 1, 1
2.584806, 0, 1
2.585041, 1, 1
2.601794, 0, 1
2.602028, 1, 1
2.602055, 0, 1
2.602289, 1, 1
2.602315, 0, 1
2.602550, 1, 1
2.602576, 0, 1
2.602810, 1, 1
2.602836, 0, 1
2.603071, 1, 1
2.603097, 0, 1
2.603331, 1, 1
2.603357, 0, 1
2.603592, 1, 1
2.603618, 0, 1
2.603852, 1, 1
2.603878, 0, 1
2.604113, 1, 1
2.604139, 0, 1
2.604373, 1, 1
2.604399, 0, 1
2.604634, 1, 1
2.604660, 0, 1
2.604894, 1, 1
2.604921, 0, 1
2.605155, 1, 1
2.605181, 0, 1
2.605416, 1, 1
2.605442, 0, 1
2.605676, 1, 1
2.605702, 0, 1
2.605937, 1, 1
2.622898, 0, 1
2.623133, 1, 1
2.623159, 0, 1
2.623393, 1, 1
2.623419, 0, 1
2.623654, 1, 1
2.623680, 0, 1
2.623914, 1, 1
2.623940, 0, 1
2.624175, 1, 1
2.624201, 0, 1
2.624435, 1, 1
2.624461, 0, 1
2.624696, 1, 1
2.624722, 0, 1
2.624957, 1, 1
2.624983, 0, 1
2.625217, 1, 1
2.625243, 0, 1
2.625478, 1, 1
2.625504, 0, 1
2.625738, 1, 1
2.625764, 0, 1
2.625999, 1, 1
2.626025, 0, 1
2.626259, 1, 1
2.626285, 0, 1
2.626520, 1, 1
2.626546, 0, 1
2.626780, 1, 1
2.626806, 0, 1
2.627041, 1, 1
2.643898, 0, 1
2.644133, 1, 1
2.644159, 0, 1
2.644393, 1, 1
2.644419, 0, 1
2.644654, 1, 1
2.644680, 0, 1
2.644914, 1, 1
2.644940, 0, 1
2.645175, 1, 1
2.645201, 0, 1
2.645435, 1, 1
2.645462, 0, 1
2.645696, 1, 1
2.645722, 0, 1
2.645957, 1, 1
2.645983, 0, 1
2.646217, 1, 1
2.646243, 0, 1
2.646478, 1, 1
2.646504, 0, 1
2.646738, 1, 1
2.646764, 0, 1
2.646999, 1, 1
2.647025, 0, 1
2.647259, 1, 1
2.647285, 0, 1
2.647520, 1, 1
2.647546, 0, 1
2.647780, 1, 1
2.647806, 0, 1
2.648041, 1, 1
2.664794, 0, 1
2.665029, 1, 1
2.665055, 0, 1
2.665289, 1, 1
2.665315, 0, 1
2.665550, 1, 1
2.665576, 0, 1
2.665810, 1, 1
2.665836, 0, 1
2.666071, 1, 1
2.666097, 0, 1
2.666331, 1, 1
2.666357, 0, 1
2.666592, 1, 1
2.666618, 0, 1
2.666852, 1, 1
2.666878, 0, 1
2.667113, 1, 1
2.667139, 0, 1
2.667373, 1, 1
2.667400, 0, 1
2.667634, 1, 1
2.667660, 0, 1
2.667895, 1, 1
2.667921, 0, 1
2.668155, 1, 1
2.668181, 0, 1
2.668416, 1, 1
2.668442, 0, 1
2.668676, 1, 1
2.668702, 0, 1
2.668937, 1, 1
2.685898, 0, 1
2.686133, 1, 1
2.686159, 0, 1
2.686393, 1, 1
2.686419, 0, 1
2.686654, 1, 1
2.686680, 0, 1
2.686914, 1, 1
2.686940, 0, 1
2.687175, 1, 1
2.687201, 0, 1
2.687436, 1, 1
2.687462, 0, 1
2.687696, 1, 1
2.687722, 0, 1
2.687957, 1, 1
2.687983, 0, 1
2.688217, 1, 1
2.688243, 0, 1
2.688478, 1, 1
2.688504, 0, 1
2.688738, 1, 1
2.688764, 0, 1
2.688999, 1, 1
2.689025, 0, 1
2.689259, 1, 1
2.689285, 0, 1
2.689520, 1, 1
2.689546, 0, 1
2.689780, 1, 1
2.689806, 0, 1
2.690041, 1, 1
2.706794, 0, 1
2.707029, 1, 1
2.707055, 0, 1
2.707289, 1, 1
2.707315, 0, 1
2.707550, 1, 1
2.707576, 0, 1
2.707810, 1, 1
2.707836, 0, 1
2.708071, 1, 1
2.708097, 0, 1
2.708331, 1, 1
2.708357, 0, 1
2.708592, 1, 1
2.708618, 0, 1
2.708852, 1, 1
2.708878, 0, 1
2.709113, 1, 1
2.709139, 0, 1
2.709373, 1, 1
2.709400, 0, 1
2.709634, 1, 1
2.709660, 0, 1
2.709895, 1, 1
2.709921, 0, 1
2.710155, 1, 1
2.710181, 0, 1
2.710416, 1, 1
2.710442, 0, 1
2.710676, 1, 1
2.710702, 0, 1
2.710937, 1, 1
2.727898, 0, 1
2.728133, 1, 1
2.728159, 0, 1
2.728393, 1, 1
2.728419, 0, 1
2.728654, 1, 1
2.728680, 0, 1
2.728914, 1, 1
2.728941, 0, 1
2.729175, 1, 1
2.729201, 0, 1
2.729436, 1, 1
2.729462, 0, 1
2.729696, 1, 1
2.729722, 0, 1
2.729957, 1, 1
2.729983, 0, 1
2.730217, 1, 1
2.730243, 0, 1
2.730478, 1, 1
2.730504, 0, 1
2.730738, 1, 1
2.730764, 0, 1
2.730999, 1, 1
2.731025, 0, 1
2.731259, 1, 1
2.731285, 0, 1
2.731520, 1, 1
2.731546, 0, 1
2.731780, 1, 1
2.731807, 0, 1
2.732041, 1, 1
2.748924, 0, 1
2.749159, 1, 1
2.749185, 0, 1
2.749419, 1, 1
2.749446, 0, 1
2.749680, 1, 1
2.749706, 0, 1
2.749941, 1, 1
2.749967, 0, 1
2.750201, 1, 1
2.750227, 0, 1
2.750462, 1, 1
2.750488, 0, 1
2.750722, 1, 1
2.750748, 0, 1
2.750983, 1, 1
2.751009, 0, 1
2.751243, 1, 1
2.751269, 0, 1
2.751504, 1, 1
2.751530, 0, 1
2.751764, 1, 1
2.751790, 0, 1
2.752025, 1, 1
2.752051, 0, 1
2.752285, 1, 1
2.752312, 0, 1
2.752546, 1, 1
2.752572, 0, 1
2.752807, 1, 1
2.752833, 0, 1
2.753067, 1, 1
2.769794, 0, 1
2.770029, 1, 1
2.770055, 0, 1
2.770289, 1, 1
2.770315, 0, 1
2.770550, 1, 1
2.770576, 0, 1
2.770810, 1, 1
2.770836, 0, 1
2.771071, 1, 1
2.771097, 0, 1
2.771331, 1, 1
2.771357, 0, 1
2.771592, 1, 1
2.771618, 0, 1
2.771852, 1, 1
2.771879, 0, 1
2.772113, 1, 1
2.772139, 0, 1
2.772374, 1, 1
2.772400, 0, 1
2.772634, 1, 1
2.772660, 0, 1
2.772895, 1, 1
2.772921, 0, 1
2.773155, 1, 1
2.773181, 0, 1
2.773416, 1, 1
2.773442, 0, 1
2.773676, 1, 1
2.773702, 0, 1
2.773937, 1, 1
2.790924, 0, 1
2.791159, 1, 1
2.791185, 0, 1
2.791419, 1, 1
2.791446, 0, 1
2.791680, 1, 1
2.791706, 0, 1
2.791941, 1, 1
2.791967, 0, 1
2.792201, 1, 1
2.792227, 0, 1
2.792462, 1, 1
2.792488, 0, 1
2.792722, 1, 1
2.792748, 0, 1
2.792983, 1, 1
2.793009, 0, 1
2.793243, 1, 1
2.793269, 0, 1
2.793504, 1, 1
2.793530, 0, 1
2.793764, 1, 1
2.793790, 0, 1
2.794025, 1, 1
2.794051, 0, 1
2.794286, 1, 1
2.794312, 0, 1
2.794546, 1, 1
2.794572, 0, 1
2.794807, 1, 1
2.794833, 0, 1
2.795067, 1, 1
2.811794, 0, 1
2.812029, 1, 1
2.812055, 0, 1
2.812289, 1, 1
2.812315, 0, 1
2.812550, 1, 1
2.812576, 0, 1
2.812810, 1, 1
2.812836, 0, 1
2.813071, 1, 1
2.813097, 0, 1
2.813331, 1, 1
2.813357, 0, 1
2.813592, 1, 1
2.813618, 0, 1
2.813853, 1, 1
2.813879, 0, 1
2.814113, 1, 1
2.814139, 0, 1
2.814374, 1, 1
2.814400, 0, 1
2.814634, 1, 1
2.814660, 0, 1
2.814895, 1, 1
2.814921, 0, 1
2.815155, 1, 1
2.815181, 0, 1
2.815416, 1, 1
2.815442, 0, 1
2.815676, 1, 1
2.815702, 0, 1
2.815937, 1, 1
2.832924, 0, 1
2.833159, 1, 1
2.833185, 0, 1
2.833420, 1, 1
2.833446, 0, 1
2.833680, 1, 1
2.833706, 0, 1
2.833941, 1, 1
2.833967, 0, 1
2.834201, 1, 1
2.834227, 0, 1
2.834462, 1, 1
2.834488, 0, 1
2.834722, 1, 1
2.834748, 0, 1
2.834983, 1, 1
2.835009, 0, 1
2.835243, 1, 1
2.835269, 0, 1
2.835504, 1, 1
2.835530, 0, 1
2.835764, 1, 1
2.835790, 0, 1
2.836025, 1, 1
2.836051, 0, 1
2.836286, 1, 1
2.836312, 0, 1
2.836546, 1, 1
2.836572, 0, 1
2.836807, 1, 1
2.836833, 0, 1
2.837067, 1, 1
2.933964, 0, 1
2.933990, 1, 1
2.934016, 0, 1
2.934199, 1, 1
2.934225, 0, 1
2.934303, 1, 1
2.934355, 0, 1
2.934459, 1, 1
2.934485, 0, 1
2.934590, 1, 1
2.934694, 0, 1
2.934720, 1, 1
2.934746, 0, 1
2.934798, 1, 1
2.934824, 0, 1
2.934980, 1, 1
2.935006, 0, 1
2.935033, 1, 1
2.935059, 0, 1
2.935241, 1, 1
2.935267, 0, 1
2.935293, 1, 1
2.935319, 0, 1
2.935345, 1, 1
2.935371, 0, 1
2.935501, 1, 1
2.935528, 0, 1
2.935554, 1, 1
2.935606, 0, 1
2.935736, 1, 1
2.935788, 0, 1
2.935814, 1, 1
2.935840, 0, 1
2.935866, 1, 1
2.935892, 0, 1
2.935944, 1, 1
2.935970, 0, 1
2.936023, 1, 1
2.936049, 0, 1
2.936283, 1, 1
2.936309, 0, 1
2.936387, 1, 1
2.936413, 0, 1
2.936544, 1, 1
2.936570, 0, 1
2.936596, 1, 1
2.936622, 0, 1
2.936700, 1, 1
2.936752, 0, 1
2.936778, 1, 1
2.936830, 0, 1
2.936908, 1, 1
2.936935, 0, 1
2.937065, 1, 1
2.937091, 0, 1
2.937117, 1, 1
2.937143, 0, 1
2.937169, 1, 1
2.937221, 0, 1
2.937247, 1, 1
3.133933, 0, 1
3.134168, 1, 1
3.134194, 0, 1
3.134428, 1, 1
3.134455, 0, 1
3.134689, 1, 1
3.134715, 0, 1
3.134950, 1, 1
3.134976, 0, 1
3.135210, 1, 1
3.135236, 0, 1
3.135471, 1, 1
3.135497, 0, 1
3.135731, 1, 1
3.135757, 0, 1
3.135992, 1, 1
3.136018, 0, 1
3.136252, 1, 1
3.136278, 0, 1
3.136513, 1, 1
3.136539, 0, 1
3.136773, 1, 1
3.136799, 0, 1
3.137034, 1, 1
3.137060, 0, 1
3.137294, 1, 1
3.137321, 0, 1
3.137555, 1, 1
3.137581, 0, 1
3.137816, 1, 1
3.137842, 0, 1
3.138076, 1, 1
3.154986, 0, 1
3.155220, 1, 1
3.155246, 0, 1
3.155481, 1, 1
3.155507, 0, 1
3.155741, 1, 1
3.155767, 0, 1
3.156002, 1, 1
3.156028, 0, 1
3.156262, 1, 1
3.156288, 0, 1
3.156523, 1, 1
3.156549, 0, 1
3.156783, 1, 1
3.156809, 0, 1
3.157044, 1, 1
3.157070, 0, 1
3.157304, 1, 1
3.157330, 0, 1
3.157565, 1, 1
3.157591, 0, 1
3.157826, 1, 1
3.157852, 0, 1
3.158086, 1, 1
3.158112, 0, 1
3.158347, 1, 1
3.158373, 0, 1
3.158607, 1, 1
3.158633, 0, 1
3.158868, 1, 1
3.158894, 0, 1
3.159128, 1, 1
3.175829, 0, 1
3.176064, 1, 1
3.176090, 0, 1
3.176324, 1, 1
3.176350, 0, 1
3.176585, 1, 1
3.176611, 0, 1
3.176845, 1, 1
3.176871, 0, 1
3.177106, 1, 1
3.177132, 0, 1
3.177366, 1, 1
3.177393, 0, 1
3.177627, 1, 1
3.177653, 0, 1
3.177888, 1, 1
3.177914, 0, 1
3.178148, 1, 1
3.178174, 0, 1
3.178409, 1, 1
3.178435, 0, 1
3.178669, 1, 1
3.178695, 0, 1
3.178930, 1, 1
3.178956, 0, 1
3.179190, 1, 1
3.179216, 0, 1
3.179451, 1, 1
3.179477, 0, 1
3.179711, 1, 1
3.179737, 0, 1
3.179972, 1, 1
3.196934, 0, 1
3.197168, 1, 1
3.197194, 0, 1
3.197429, 1, 1
3.197455, 0, 1
3.197689, 1, 1
3.197715, 0, 1
3.197950, 1, 1
3.197976, 0, 1
3.198210, 1, 1
3.198236, 0, 1
3.198471, 1, 1
3.198497, 0, 1
3.198731, 1, 1
3.198757, 0, 1
3.198992, 1, 1
3.199018, 0, 1
3.199252, 1, 1
3.199278, 0, 1
3.199513, 1, 1
3.199539, 0, 1
3.199773, 1, 1
3.199800, 0, 1
3.200034, 1, 1
3.200060, 0, 1
3.200295, 1, 1
3.200321, 0, 1
3.200555, 1, 1
3.200581, 0, 1
3.200816, 1, 1
3.200842, 0, 1
3.201076, 1, 1
3.217829, 0, 1
3.218064, 1, 1
3.218090, 0, 1
3.218324, 1, 1
3.218350, 0, 1
3.218585, 1, 1
3.218611, 0, 1
3.218845, 1, 1
3.218871, 0, 1
3.219106, 1, 1
3.219132, 0, 1
3.219367, 1, 1
3.219393, 0, 1
3.219627, 1, 1
3.219653, 0, 1
3.219888, 1, 1
3.219914, 0, 1
3.220148, 1, 1
3.220174, 0, 1
3.220409, 1, 1
3.220435, 0, 1
3.220669, 1, 1
3.220695, 0, 1
3.220930, 1, 1
3.220956, 0, 1
3.221190, 1, 1
3.221216, 0, 1
3.221451, 1, 1
3.221477, 0, 1
3.221711, 1, 1
3.221738, 0, 1
3.221972, 1, 1
3.238934, 0, 1
3.239168, 1, 1
3.239194, 0, 1
3.239429, 1, 1
3.239455, 0, 1
3.239689, 1, 1
3.239715, 0, 1
3.239950, 1, 1
3.239976, 0, 1
3.240210, 1, 1
3.240236, 0, 1
3.240471, 1, 1
3.240497, 0, 1
3.240731, 1, 1
3.240757, 0, 1
3.240992, 1, 1
3.241018, 0, 1
3.241252, 1, 1
3.241278, 0, 1
3.241513, 1, 1
3.241539, 0, 1
3.241774, 1, 1
3.241800, 0, 1
3.242034, 1, 1
3.242060, 0, 1
3.242295, 1, 1
3.242321, 0, 1
3.242555, 1, 1
3.242581, 0, 1
3.242816, 1, 1
3.242842, 0, 1
3.243076, 1, 1
3.259934, 0, 1
3.260168, 1, 1
3.260194, 0, 1
3.260429, 1, 1
3.260455, 0, 1
3.260689, 1, 1
3.260715, 0, 1
3.260950, 1, 1
3.260976, 0, 1
3.261210, 1, 1
3.261236, 0, 1
3.261471, 1, 1
3.261497, 0, 1
3.261731, 1, 1
3.261757, 0, 1
3.261992, 1, 1
3.262018, 0, 1
3.262252, 1, 1
3.262278, 0, 1
3.262513, 1, 1
3.262539, 0, 1
3.262774, 1, 1
3.262800, 0, 1
3.263034, 1, 1
3.263060, 0, 1
3.263295, 1, 1
3.263321, 0, 1
3.263555, 1, 1
3.263581, 0, 1
3.263816, 1, 1
3.263842, 0, 1
3.264076, 1, 1
3.280829, 0, 1
3.281064, 1, 1
3.281090, 0, 1
3.281324, 1, 1
3.281350, 0, 1
3.281585, 1, 1
3.281611, 0, 1
3.281846, 1, 1
3.281872, 0, 1
3.282106, 1, 1
3.282132, 0, 1
3.282367, 1, 1
3.282393, 0, 1
3.282627, 1, 1
3.282653, 0, 1
3.282888, 1, 1
3.282914, 0, 1
3.283148, 1, 1
3.283174, 0, 1
3.283409, 1, 1
3.283435, 0, 1
3.283669, 1, 1
3.283695, 0, 1
3.283930, 1, 1
3.283956, 0, 1
3.284190, 1, 1
3.284216, 0, 1
3.284451, 1, 1
3.284477, 0, 1
3.284712, 1, 1
3.284738, 0, 1
3.284972, 1, 1
3.301960, 0, 1
3.302194, 1, 1
3.302220, 0, 1
3.302455, 1, 1
3.302481, 0, 1
3.302715, 1, 1
3.302741, 0, 1
3.302976, 1, 1
3.303002, 0, 1
3.303236, 1, 1
3.303262, 0, 1
3.303497, 1, 1
3.303523, 0, 1
3.303757, 1, 1
3.303783, 0, 1
3.304018, 1, 1
3.304044, 0, 1
3.304279, 1, 1
3.304305, 0, 1
3.304539, 1, 1
3.304565, 0, 1
3.304800, 1, 1
3.304826, 0, 1
3.305060, 1, 1
3.305086, 0, 1
3.305321, 1, 1
3.305347, 0, 1
3.305581, 1, 1
3.305607, 0, 1
3.305842, 1, 1
3.305868, 0, 1
3.306102, 1, 1
3.322829, 0, 1
3.323064, 1, 1
3.323090, 0, 1
3.323324, 1, 1
3.323351, 0, 1
3.323585, 1, 1
3.323611, 0, 1
3.323846, 1, 1
3.323872, 0, 1
3.324106, 1, 1
3.324132, 0, 1
3.324367, 1, 1
3.324393, 0, 1
3.324627, 1, 1
3.324653, 0, 1
3.324888, 1, 1
3.324914, 0, 1
3.325148, 1, 1
3.325174, 0, 1
3.325409, 1, 1
3.325435, 0, 1
3.325669, 1, 1
3.325695, 0, 1
3.325930, 1, 1
3.325956, 0, 1
3.326190, 1, 1
3.326217, 0, 1
3.326451, 1, 1
3.326477, 0, 1
3.326712, 1, 1
3.326738, 0, 1
3.326972, 1, 1
3.343960, 0, 1
3.344194, 1, 1
3.344220, 0, 1
3.344455, 1, 1
3.344481, 0, 1
3.344715, 1, 1
3.344741, 0, 1
3.344976, 1, 1
3.345002, 0, 1
3.345236, 1, 1
3.345262, 0, 1
3.345497, 1, 1
3.345523, 0, 1
3.345757, 1, 1
3.345784, 0, 1
3.346018, 1, 1
3.346044, 0, 1
3.346279, 1, 1
3.346305, 0, 1
3.346539, 1, 1
3.346565, 0, 1
3.346800, 1, 1
3.346826, 0, 1
3.347060, 1, 1
3.347086, 0, 1
3.347321, 1, 1
3.347347, 0, 1
3.347581, 1, 1
3.347607, 0, 1
3.347842, 1, 1
3.347868, 0, 1
3.348102, 1, 1
3.364960, 0, 1
3.365194, 1, 1
3.365220, 0, 1
3.365455, 1, 1
3.365481, 0, 1
3.365715, 1, 1
3.365741, 0, 1
3.365976, 1, 1
3.366002, 0, 1
3.366236, 1, 1
3.366262, 0, 1
3.366497, 1, 1
3.366523, 0, 1
3.366757, 1, 1
3.366784, 0, 1
3.367018, 1, 1
3.367044, 0, 1
3.367279, 1, 1
3.367305, 0, 1
3.367539, 1, 1
3.367565, 0, 1
3.367800, 1, 1
3.367826, 0, 1
3.368060, 1, 1
3.368086, 0, 1
3.368321, 1, 1
3.368347, 0, 1
3.368581, 1, 1
3.368607, 0, 1
3.368842, 1, 1
3.368868, 0, 1
3.369102, 1, 1
3.385829, 0, 1
3.386064, 1, 1
3.386090, 0, 1
3.386325, 1, 1
3.386351, 0, 1
3.386585, 1, 1
3.386611, 0, 1
3.386846, 1, 1
3.386872, 0, 1
3.387106, 1, 1
3.387132, 0, 1
3.387367, 1, 1
3.387393, 0, 1
3.387627, 1, 1
3.387653, 0, 1
3.387888, 1, 1
3.387914, 0, 1
3.388148, 1, 1
3.388174, 0, 1
3.388409, 1, 1
3.388435, 0, 1
3.388669, 1, 1
3.388695, 0, 1
3.388930, 1, 1
3.388956, 0, 1
3.389191, 1, 1
3.389217, 0, 1
3.389451, 1, 1
3.389477, 0, 1
3.389712, 1, 1
3.389738, 0, 1
3.389972, 1, 1
3.406960, 0, 1
3.407194, 1, 1
3.407220, 0, 1
3.407455, 1, 1
3.407481, 0, 1
3.407715, 1, 1
3.407741, 0, 1
3.407976, 1, 1
3.408002, 0, 1
3.408236, 1, 1
3.408262, 0, 1
3.408497, 1, 1
3.408523, 0, 1
3.408758, 1, 1
3.408784, 0, 1
3.409018, 1, 1
3.409044, 0, 1
3.409279, 1, 1
3.409305, 0, 1
3.409539, 1, 1
3.409565, 0, 1
3.409800, 1, 1
3.409826, 0, 1
3.410060, 1, 1
3.410086, 0, 1
3.410321, 1, 1
3.410347, 0, 1
3.410581, 1, 1
3.410607, 0, 1
3.410842, 1, 1
3.410868, 0, 1
3.411102, 1, 1
3.427856, 0, 1
3.428090, 1, 1
3.428116, 0, 1
3.428351, 1, 1
3.428377, 0, 1
3.428611, 1, 1
3.428637, 0, 1
3.428872, 1, 1
3.428898, 0, 1
3.429132, 1, 1
3.429158, 0, 1
3.429393, 1, 1
3.429419, 0, 1
3.429653, 1, 1
3.429679, 0, 1
3.429914, 1, 1
3.429940, 0, 1
3.430174, 1, 1
3.430200, 0, 1
3.430435, 1, 1
3.430461, 0, 1
3.430696, 1, 1
3.430722, 0, 1
3.430956, 1, 1
3.430982, 0, 1
3.431217, 1, 1
